type,addr,func_code,register,data,frame
error,0,0,0,,a8 39 00 43 cb 8c cd 43 cb 99 9a 43 cb 66 66 42 48 00 00 42 8b 33 33 43 62 66 66 c2 62 cc cd c2 c8 00 00 c3 af 26 66 c3 3a 33 33 c2 62 66 66 c2 d6 cc cd 44 1c 00 00 43 bb 80 00 42 b6 99 9a 43 1d 99 9a bd eb 85 1f bf 1b 22 d1 bf 1d 70 a4 bf 22 0c 4a 42 f7 00 00 42 ff 28 f6 c0 2f 5c 29 bf ae 14 7b 43 11 c2 8f 43 13 85 1f 42 44 7a e1 42 55 d7 0a 41 b2 14 7b 41 9f 85 1f 42 4f 70 a4 42 5b 47 ae 6a 21
request,11,3,2102,,0b 03 08 36 00 50 a7 32
response,11,3,,3f cd b2 2d 3e c9 37 4c 3f 2b 85 1f 43 6b 00 00 43 6a cc cd 43 6b 4c cd 43 6b 19 9a 43 cb 8c cd 43 cb 8c cd 43 cb a6 66 43 cb 73 33 42 48 00 00 42 90 66 66 43 62 e6 66 c2 61 99 9a c2 c4 99 9a c3 af 59 9a c3 39 99 9a c2 66 66 66 c2 d6 cc cd 44 1c 0c cd 43 bb d9 9a 42 b8 33 33 43 1c 33 33 bd e9 78 d5 bf 1a 9f be bf 1c 6a 7f bf 22 4d d3 42 f7 00 00 42 ff 28 f6 c0 2f 5c 29 bf ae 14 7b 43 11 c2 8f 43 13 85 1f 42 44 7a e1 42 55 d7 0a 41 b2 14 7b 41 9f 85 1f 42 4f 70 a4 42 5b 47 ae,0b 03 a0 3f cd b2 2d 3e c9 37 4c 3f 2b 85 1f 43 6b 00 00 43 6a cc cd 43 6b 4c cd 43 6b 19 9a 43 cb 8c cd 43 cb 8c cd 43 cb a6 66 43 cb 73 33 42 48 00 00 42 90 66 66 43 62 e6 66 c2 61 99 9a c2 c4 99 9a c3 af 59 9a c3 39 99 9a c2 66 66 66 c2 d6 cc cd 44 1c 0c cd 43 bb d9 9a 42 b8 33 33 43 1c 33 33 bd e9 78 d5 bf 1a 9f be bf 1c 6a 7f bf 22 4d d3 42 f7 00 00 42 ff 28 f6 c0 2f 5c 29 bf ae 14 7b 43 11 c2 8f 43 13 85 1f 42 44 7a e1 42 55 d7 0a 41 b2 14 7b 41 9f 85 1f 42 4f 70 a4 42 5b 47 ae 6d 69
request,5,16,40601,00 00 13 88 00 00 13 88 1d 37 1d 37,05 10 9e 99 00 06 0c 00 00 13 88 00 00 13 88 1d 37 1d 37 b3 97
response,5,16,40601,,05 10 9e 99 00 06 be 48
request,11,3,2102,,0b 03 08 36 00 50 a7 32
response,11,3,,3f ce b8 52 3e cb 43 96 3f 2c 08 31 43 6b 19 9a 43 6a cc cd 43 6b 66 66 43 6b 4c cd 43 cb a6 66 43 cb 99 9a 43 cb cc cd 43 cb 8c cd 42 48 00 00 42 a2 66 66 43 6c cc cd c2 60 66 66 c2 c6 cc cd c3 ae 33 33 c3 37 4c cd c2 66 00 00 c2 d7 33 33 44 1e 06 66 43 bf c0 00 42 b7 cc cd 43 1c b3 33 bd e9 78 d5 bf 1a 5e 35 bf 1d 70 a4 bf 21 06 25 42 f7 00 00 42 ff 28 f6 c0 2f 5c 29 bf ae 14 7b 43 11 c2 8f 43 13 85 1f 42 44 7a e1 42 55 d7 0a 41 b2 14 7b 41 9f 85 1f 42 4f 70 a4 42 5b 47 ae,0b 03 a0 3f ce b8 52 3e cb 43 96 3f 2c 08 31 43 6b 19 9a 43 6a cc cd 43 6b 66 66 43 6b 4c cd 43 cb a6 66 43 cb 99 9a 43 cb cc cd 43 cb 8c cd 42 48 00 00 42 a2 66 66 43 6c cc cd c2 60 66 66 c2 c6 cc cd c3 ae 33 33 c3 37 4c cd c2 66 00 00 c2 d7 33 33 44 1e 06 66 43 bf c0 00 42 b7 cc cd 43 1c b3 33 bd e9 78 d5 bf 1a 5e 35 bf 1d 70 a4 bf 21 06 25 42 f7 00 00 42 ff 28 f6 c0 2f 5c 29 bf ae 14 7b 43 11 c2 8f 43 13 85 1f 42 44 7a e1 42 55 d7 0a 41 b2 14 7b 41 9f 85 1f 42 4f 70 a4 42 5b 47 ae f5 61
request,5,3,39500,,05 03 9a 4c 00 19 6a 8b
response,5,3,,00 00 27 10 00 00 27 10 00 00 13 88 00 00 13 88 00 27 00 01 1d dc 00 00 00 00 00 5f 00 01 00 04 27 e0 00 04 07 ea 00 00 01 b3 00 00 00 00 00 00 00 00,05 03 32 00 00 27 10 00 00 27 10 00 00 13 88 00 00 13 88 00 27 00 01 1d dc 00 00 00 00 00 5f 00 01 00 04 27 e0 00 04 07 ea 00 00 01 b3 00 00 00 00 00 00 00 00 7a cf
request,11,3,2102,,0b 03 08 36 00 50 a7 32
response,11,3,,3f ce b8 52 3e cb 43 96 3f 2c 08 31 43 6b 19 9a 43 6a cc cd 43 6b 66 66 43 6b 4c cd 43 cb a6 66 43 cb 99 9a 43 cb cc cd 43 cb 8c cd 42 48 00 00 42 a1 99 9a 43 68 e6 66 c2 5a 66 66 c2 c2 cc cd c3 af 40 00 c3 39 19 9a c2 69 99 9a c2 d5 cc cd 44 1d 13 33 43 be 33 33 42 b9 00 00 43 1b 66 66 bd e9 78 d5 bf 1a 5e 35 bf 1d 70 a4 bf 21 06 25 42 f7 00 00 42 ff 28 f6 c0 2f 5c 29 bf ae 14 7b 43 11 c2 8f 43 13 85 1f 42 44 7a e1 42 55 d7 0a 41 b2 14 7b 41 9f 85 1f 42 4f 70 a4 42 5b 47 ae,0b 03 a0 3f ce b8 52 3e cb 43 96 3f 2c 08 31 43 6b 19 9a 43 6a cc cd 43 6b 66 66 43 6b 4c cd 43 cb a6 66 43 cb 99 9a 43 cb cc cd 43 cb 8c cd 42 48 00 00 42 a1 99 9a 43 68 e6 66 c2 5a 66 66 c2 c2 cc cd c3 af 40 00 c3 39 19 9a c2 69 99 9a c2 d5 cc cd 44 1d 13 33 43 be 33 33 42 b9 00 00 43 1b 66 66 bd e9 78 d5 bf 1a 5e 35 bf 1d 70 a4 bf 21 06 25 42 f7 00 00 42 ff 28 f6 c0 2f 5c 29 bf ae 14 7b 43 11 c2 8f 43 13 85 1f 42 44 7a e1 42 55 d7 0a 41 b2 14 7b 41 9f 85 1f 42 4f 70 a4 42 5b 47 ae f3 20
both,5,6,49000,00 03,05 06 bf 68 00 03 6c 47
both,5,6,49000,00 03,05 06 bf 68 00 03 6c 47
request,5,3,32201,,05 03 7d c9 00 09 4c 1a
response,5,3,,00 01 02 03 00 00 ff ff ff f9 01 1e 00 ff 00 10 00 64,05 03 12 00 01 02 03 00 00 ff ff ff f9 01 1e 00 ff 00 10 00 64 30 a4
request,11,3,2102,,0b 03 08 36 00 50 a7 32
response,11,3,,3f d0 00 00 3e cb 43 96 3f 2a 3d 71 43 6b 19 9a 43 6a cc cd 43 6b 66 66 43 6b 4c cd 43 cb a6 66 43 cb 99 9a 43 cb cc cd 43 cb 8c cd 42 47 f5 c3 42 9b 33 33 43 68 b3 33 c2 58 00 00 c2 c6 cc cd c3 ae c0 00 c3 39 66 66 c2 64 cc cd c2 d6 00 00 44 1d 2c cd 43 bd cc cd 42 b8 cc cd 43 1c 99 9a be 05 1e b8 bf 1e b8 52 bf 1c ac 08 bf 21 ca c1 42 f7 00 00 42 ff 28 f6 c0 2f 5c 29 bf ae 14 7b 43 11 c2 8f 43 13 85 1f 42 44 7a e1 42 55 d7 0a 41 b2 14 7b 41 9f 85 1f 42 4f 70 a4 42 5b 47 ae,0b 03 a0 3f d0 00 00 3e cb 43 96 3f 2a 3d 71 43 6b 19 9a 43 6a cc cd 43 6b 66 66 43 6b 4c cd 43 cb a6 66 43 cb 99 9a 43 cb cc cd 43 cb 8c cd 42 47 f5 c3 42 9b 33 33 43 68 b3 33 c2 58 00 00 c2 c6 cc cd c3 ae c0 00 c3 39 66 66 c2 64 cc cd c2 d6 00 00 44 1d 2c cd 43 bd cc cd 42 b8 cc cd 43 1c 99 9a be 05 1e b8 bf 1e b8 52 bf 1c ac 08 bf 21 ca c1 42 f7 00 00 42 ff 28 f6 c0 2f 5c 29 bf ae 14 7b 43 11 c2 8f 43 13 85 1f 42 44 7a e1 42 55 d7 0a 41 b2 14 7b 41 9f 85 1f 42 4f 70 a4 42 5b 47 ae 38 c0
request,11,3,2102,,0b 03 08 36 00 50 a7 32
response,11,3,,3f cd f3 b6 3e cb 43 96 3f 2b c6 a8 43 6b 19 9a 43 6a cc cd 43 6b 66 66 43 6b 4c cd 43 cb a6 66 43 cb 99 9a 43 cb cc cd 43 cb 8c cd 42 47 f5 c3 42 99 99 9a 43 67 80 00 c2 5e cc cd c2 c5 cc cd c3 ae c0 00 c3 38 e6 66 c2 65 33 33 c2 d6 66 66 44 1c 8c cd 43 bc f3 33 42 b7 99 9a 43 1c 66 66 be 00 00 00 bf 1c ac 08 bf 19 db 23 bf 21 89 37 42 f7 00 00 42 ff 28 f6 c0 2f 5c 29 bf ae 14 7b 43 11 c2 8f 43 13 85 1f 42 44 7a e1 42 55 d7 0a 41 b2 14 7b 41 9f 85 1f 42 4f 70 a4 42 5b 47 ae,0b 03 a0 3f cd f3 b6 3e cb 43 96 3f 2b c6 a8 43 6b 19 9a 43 6a cc cd 43 6b 66 66 43 6b 4c cd 43 cb a6 66 43 cb 99 9a 43 cb cc cd 43 cb 8c cd 42 47 f5 c3 42 99 99 9a 43 67 80 00 c2 5e cc cd c2 c5 cc cd c3 ae c0 00 c3 38 e6 66 c2 65 33 33 c2 d6 66 66 44 1c 8c cd 43 bc f3 33 42 b7 99 9a 43 1c 66 66 be 00 00 00 bf 1c ac 08 bf 19 db 23 bf 21 89 37 42 f7 00 00 42 ff 28 f6 c0 2f 5c 29 bf ae 14 7b 43 11 c2 8f 43 13 85 1f 42 44 7a e1 42 55 d7 0a 41 b2 14 7b 41 9f 85 1f 42 4f 70 a4 42 5b 47 ae 33 e6
request,5,16,40601,00 00 13 88 00 00 13 88 1d 2f 1d 2f,05 10 9e 99 00 06 0c 00 00 13 88 00 00 13 88 1d 2f 1d 2f 33 9a
response,5,16,40601,,05 10 9e 99 00 06 be 48
request,5,3,39500,,05 03 9a 4c 00 19 6a 8b
response,5,3,,00 00 27 10 00 00 27 10 00 00 13 88 00 00 13 88 00 27 00 01 1d dc 00 00 00 00 00 5f 00 01 00 04 27 e0 00 04 07 ea 00 00 01 b3 00 00 00 00 00 00 00 00,05 03 32 00 00 27 10 00 00 27 10 00 00 13 88 00 00 13 88 00 27 00 01 1d dc 00 00 00 00 00 5f 00 01 00 04 27 e0 00 04 07 ea 00 00 01 b3 00 00 00 00 00 00 00 00 7a cf
request,11,3,2102,,0b 03 08 36 00 50 a7 32
error,0,0,0,,bf ae 14 7b 43 11 c2 8f 43 13 85 1f 42 44 7a e1 42 55 d7 0a 41 b2 14 7b 41 9f 85 1f 42 4f 70 a4 42 5b 47 ae ea 7a
request,11,3,2102,,0b 03 08 36 00 50 a7 32
response,11,3,,3f ce f9 db 3e cb 43 96 3f 2b 02 0c 43 6b 33 33 43 6a cc cd 43 6b 99 9a 43 6b 66 66 43 cb b3 33 43 cb a6 66 43 cb e6 66 43 cb 99 9a 42 47 f5 c3 42 9c 99 9a 43 67 e6 66 c2 5e 66 66 c2 c3 99 9a c3 af 99 9a c3 3a 19 9a c2 66 cc cd c2 d6 cc cd 44 1c a6 66 43 bd 66 66 42 b7 cc cd 43 1b cc cd bd f9 db 23 bf 1c ac 08 bf 1c 6a 7f bf 22 0c 4a 42 f7 00 00 42 ff 28 f6 c0 2f 5c 29 bf ae 14 7b 43 11 c2 8f 43 13 85 1f 42 44 7a e1 42 55 d7 0a 41 b2 14 7b 41 9f 85 1f 42 4f 70 a4 42 5b 47 ae,0b 03 a0 3f ce f9 db 3e cb 43 96 3f 2b 02 0c 43 6b 33 33 43 6a cc cd 43 6b 99 9a 43 6b 66 66 43 cb b3 33 43 cb a6 66 43 cb e6 66 43 cb 99 9a 42 47 f5 c3 42 9c 99 9a 43 67 e6 66 c2 5e 66 66 c2 c3 99 9a c3 af 99 9a c3 3a 19 9a c2 66 cc cd c2 d6 cc cd 44 1c a6 66 43 bd 66 66 42 b7 cc cd 43 1b cc cd bd f9 db 23 bf 1c ac 08 bf 1c 6a 7f bf 22 0c 4a 42 f7 00 00 42 ff 28 f6 c0 2f 5c 29 bf ae 14 7b 43 11 c2 8f 43 13 85 1f 42 44 7a e1 42 55 d7 0a 41 b2 14 7b 41 9f 85 1f 42 4f 70 a4 42 5b 47 ae d3 ab
both,5,6,49000,00 03,05 06 bf 68 00 03 6c 47
both,5,6,49000,00 03,05 06 bf 68 00 03 6c 47
request,5,16,40601,00 00 13 88 00 00 13 88 1d 28 1d 28,05 10 9e 99 00 06 0c 00 00 13 88 00 00 13 88 1d 28 1d 28 c3 99
response,5,16,40601,,05 10 9e 99 00 06 be 48
request,11,3,2102,,0b 03 08 36 00 50 a7 32
error,0,0,0,,0b 03 a0 3f ce 14 7b 3e ca c0 83 3f 2b 85 1f 43 6b 33 33 43 6a cc cd 43 6b 99 9a 43 6b 66 66 43 cb b3 33 43 cb a6 66 43 cb e6 66 43 cb 99 9a 42 47 f5 c3 42 95 66 66 43 65 80 00 c2 61 33 33 c2 c4 cc cd c3 af 4c cd c3 39 b3 33 c2 66 cc cd c2 d6 33 33 44 1c 73 33 43 bc cc cd 42 b8 66 66 43 1c 00 00 bd f7 ce d9 bf 1c 6a 7f bf 1c 6a 7f bf 47 ae 3e ca 3d 71 3f 2b 02 0c 43 6b 33 33 43 6a cc cd 43 6b 99 9a 43 6b 66 66 43 cb b3 33 43 cb a6 66 43 cb e6 66 43 cb 99 9a 42 47 f5 c3 42 a6 33 33 43 6e b3 33 c2 61 99 9a c2 c6 33 33 c3 ae 8c cd c3 38 b3 33 c2 65 33 33 c2 d6 00 00 44 1e 2c cd 43 c0 00 00 42 b7 cc cd 43 1c 80 00 bd f1 a9 fc bf 1b a5 e3 bf 1c 6a 7f bf 21 ca c1 42 f7 00 00 42 ff 28 f6 c0 2f 5c 29 bf ae 14 7b 43 11 c2 8f 43 13 85 1f 42 44 7a e1 42 55 d7 0a 41 b2 14 7b 41 9f 85 1f 42 4f 70 a4 42 5b 47 ae fd c1
request,5,3,32051,,05 03 7d 33 00 09 6c 2b
response,5,3,,00 01 02 0e 00 0b 00 00 00 2b 01 29 01 05 00 3e 00 64,05 03 12 00 01 02 0e 00 0b 00 00 00 2b 01 29 01 05 00 3e 00 64 cd 71
error,0,0,0,,ff 28 f6 c0 2f 5c 29 bf ae 14 7b 43 11 c2 8f 43 13 85 1f 42 44 7a e1 42 55 d7 0a 41 b2 14 7b 41 9f 85 1f 42 4f 70 a4 42 5b 47 ae d8 da
request,5,3,30101,,05 03 75 95 00 09 8e 68
error,0,0,0,,1d 00 00 bd eb 85 1f bf 1a e1 48 bf 1c ac 08 bf 21 47 ae 42 f7 05 1f 42 ff 28 f6 c0 2f 5c 29 bf ae 14 7b 43 11 c5 1f 43 13 85 1f 42 44 7a e1 42 55 d7 0a 41 b2 14 7b 41 9f 85 1f 42 4f 70 a4 42 5b 47 ae 3e 92
both,5,6,49009,1d d4,05 06 bf 71 1d d4 f4 8e
both,5,6,49009,1d d4,05 06 bf 71 1d d4 f4 8e
request,11,3,2102,,0b 03 08 36 00 50 a7 32
response,11,3,,3f cc 49 ba 3e cb 43 96 3f 2b c6 a8 43 6b 19 9a 43 6a 99 9a 43 6b 80 00 43 6b 4c cd 43 cb 99 9a 43 cb 8c cd 43 cb d9 9a 43 cb 73 33 42 47 eb 85 42 96 99 9a 43 68 00 00 c2 67 33 33 c2 c5 99 9a c3 aa 73 33 c3 2f 33 33 c2 67 33 33 c2 d7 99 9a 44 1c 39 9a 43 bb 59 9a 42 b9 cc cd 43 1d 19 9a bd ed 91 68 bf 1b 64 5a bf 1c ed 91 bf 20 c4 9c 42 f7 05 1f 42 ff 28 f6 c0 2f 5c 29 bf ae 14 7b 43 11 c5 1f 43 13 85 1f 42 44 7a e1 42 55 d7 0a 41 b2 14 7b 41 9f 85 1f 42 4f 70 a4 42 5b 47 ae,0b 03 a0 3f cc 49 ba 3e cb 43 96 3f 2b c6 a8 43 6b 19 9a 43 6a 99 9a 43 6b 80 00 43 6b 4c cd 43 cb 99 9a 43 cb 8c cd 43 cb d9 9a 43 cb 73 33 42 47 eb 85 42 96 99 9a 43 68 00 00 c2 67 33 33 c2 c5 99 9a c3 aa 73 33 c3 2f 33 33 c2 67 33 33 c2 d7 99 9a 44 1c 39 9a 43 bb 59 9a 42 b9 cc cd 43 1d 19 9a bd ed 91 68 bf 1b 64 5a bf 1c ed 91 bf 20 c4 9c 42 f7 05 1f 42 ff 28 f6 c0 2f 5c 29 bf ae 14 7b 43 11 c5 1f 43 13 85 1f 42 44 7a e1 42 55 d7 0a 41 b2 14 7b 41 9f 85 1f 42 4f 70 a4 42 5b 47 ae 6e 21
request,5,16,40601,00 00 13 88 00 00 13 88 1d 19 1d 19,05 10 9e 99 00 06 0c 00 00 13 88 00 00 13 88 1d 19 1d 19 53 82
response,5,16,40601,,05 10 9e 99 00 06 be 48
both,5,6,49000,00 03,05 06 bf 68 00 03 6c 47
both,5,6,49000,00 03,05 06 bf 68 00 03 6c 47
request,11,3,2102,,0b 03 08 36 00 50 a7 32
response,11,3,,3f cf 1a a0 3e cb 43 96 3f 2c 8b 44 43 6b 19 9a 43 6a 99 9a 43 6b 80 00 43 6b 4c cd 43 cb 99 9a 43 cb 8c cd 43 cb d9 9a 43 cb 73 33 42 47 eb 85 42 96 cc cd 43 66 e6 66 c2 64 00 00 c2 c4 99 9a c3 af 73 33 c3 39 19 9a c2 66 cc cd c2 d8 00 00 44 1d 20 00 43 bd 40 00 42 b8 cc cd 43 1d 80 00 bd f1 a9 fc bf 1c ac 08 bf 1e 35 3f bf 20 c4 9c 42 f7 05 1f 42 ff 28 f6 c0 2f 5c 29 bf ae 14 7b 43 11 c5 1f 43 13 85 1f 42 44 7a e1 42 55 d7 0a 41 b2 14 7b 41 9f 85 1f 42 4f 70 a4 42 5b 47 ae,0b 03 a0 3f cf 1a a0 3e cb 43 96 3f 2c 8b 44 43 6b 19 9a 43 6a 99 9a 43 6b 80 00 43 6b 4c cd 43 cb 99 9a 43 cb 8c cd 43 cb d9 9a 43 cb 73 33 42 47 eb 85 42 96 cc cd 43 66 e6 66 c2 64 00 00 c2 c4 99 9a c3 af 73 33 c3 39 19 9a c2 66 cc cd c2 d8 00 00 44 1d 20 00 43 bd 40 00 42 b8 cc cd 43 1d 80 00 bd f1 a9 fc bf 1c ac 08 bf 1e 35 3f bf 20 c4 9c 42 f7 05 1f 42 ff 28 f6 c0 2f 5c 29 bf ae 14 7b 43 11 c5 1f 43 13 85 1f 42 44 7a e1 42 55 d7 0a 41 b2 14 7b 41 9f 85 1f 42 4f 70 a4 42 5b 47 ae 05 b7
request,5,3,39500,,05 03 9a 4c 00 19 6a 8b
response,5,3,,00 00 27 10 00 00 27 10 00 00 13 88 00 00 13 88 00 27 00 01 1d ae 00 00 00 00 00 60 00 01 00 04 27 e0 00 04 07 ea 00 00 01 b3 00 00 00 00 00 00 00 00,05 03 32 00 00 27 10 00 00 27 10 00 00 13 88 00 00 13 88 00 27 00 01 1d ae 00 00 00 00 00 60 00 01 00 04 27 e0 00 04 07 ea 00 00 01 b3 00 00 00 00 00 00 00 00 ac 3d
request,11,3,2102,,0b 03 08 36 00 50 a7 32
response,11,3,,3f cf 1a a0 3e cb 43 96 3f 2c 8b 44 43 6b 19 9a 43 6a 99 9a 43 6b 80 00 43 6b 4c cd 43 cb 99 9a 43 cb 8c cd 43 cb d9 9a 43 cb 73 33 42 47 eb 85 42 b9 cc cd 43 79 66 66 c2 66 00 00 c2 c6 00 00 c3 ae cc cd c3 38 4c cd c2 66 00 00 c2 d7 66 66 44 20 59 9a 43 c3 c0 00 42 b9 00 00 43 1d 33 33 bd f1 a9 fc bf 1c ac 08 bf 1e 35 3f bf 20 c4 9c 42 f7 05 1f 42 ff 28 f6 c0 2f 5c 29 bf ae 14 7b 43 11 c5 1f 43 13 85 1f 42 44 7a e1 42 55 d7 0a 41 b2 14 7b 41 9f 85 1f 42 4f 70 a4 42 5b 47 ae,0b 03 a0 3f cf 1a a0 3e cb 43 96 3f 2c 8b 44 43 6b 19 9a 43 6a 99 9a 43 6b 80 00 43 6b 4c cd 43 cb 99 9a 43 cb 8c cd 43 cb d9 9a 43 cb 73 33 42 47 eb 85 42 b9 cc cd 43 79 66 66 c2 66 00 00 c2 c6 00 00 c3 ae cc cd c3 38 4c cd c2 66 00 00 c2 d7 66 66 44 20 59 9a 43 c3 c0 00 42 b9 00 00 43 1d 33 33 bd f1 a9 fc bf 1c ac 08 bf 1e 35 3f bf 20 c4 9c 42 f7 05 1f 42 ff 28 f6 c0 2f 5c 29 bf ae 14 7b 43 11 c5 1f 43 13 85 1f 42 44 7a e1 42 55 d7 0a 41 b2 14 7b 41 9f 85 1f 42 4f 70 a4 42 5b 47 ae 0c a2
request,11,3,2102,,0b 03 08 36 00 50 a7 32
error,0,0,0,,0b 03 a0 3f d7 0a 3d 3e ca c0 83 3f 2c 8b 44 43 6b 00 00 43 6a 80 00 43 6b 66 66 43 6b 4c cd 43 cb 8c cd 43 cb 73 33 43 cb cc cd 43 cb 66 66 42 47 eb 85 42 af 99 9a 43 73 00 00 c2 65 99 9a c2 c3 66 66 c3 ab 26 66 c3 30 66 66 c2 65 33 33 c2 d9 00 00 44 1e 93 33 43 c0 33 33 42 b8 cc cd 43 1d 4c cd bd f3 b6 46 bf 1c ed 91 bf 1e f9 db bf 41 b2 14 7b 41 9f 85 1f 42 4f 70 a4 42 5b 47 ae 2a d8
request,5,3,39500,,05 03 9a 4c 00 19 6a 8b
response,5,3,,00 00 27 10 00 00 27 10 00 00 13 88 00 00 13 88 00 27 00 01 1d ae 00 00 00 00 00 60 00 01 00 04 27 e0 00 04 07 ea 00 00 01 b3 00 00 00 00 00 00 00 00,05 03 32 00 00 27 10 00 00 27 10 00 00 13 88 00 00 13 88 00 27 00 01 1d ae 00 00 00 00 00 60 00 01 00 04 27 e0 00 04 07 ea 00 00 01 b3 00 00 00 00 00 00 00 00 ac 3d
request,11,3,2102,,0b 03 08 36 00 50 a7 32
error,0,0,0,,0b 03 a0 3f d2 6e 98 3e ca c0 83 3f 2c 08 31 43 6b 19 9a 43 6a 99 9a 43 6b 80 00 43 6b 4c cd 43 cb 99 9a 43 cb 8c cd 43 cb d9 9a 43 cb 73 33 42 47 eb 85 42 9d 00 00 43 6b cc cd c2 68 cc cd c2 c5 cc cd c3 af 40 00 c3 38 99 9a c2 66 66 66 c2 d8 66 66 44 1d e6 66 43 be d9 9a 42 b9 66 66 43 1d 19 9a bd ef 9d b2 bf 1b a5 e3 bf 20 83 12 bf 21 47 ae 42 f7 05 1f 42 ff 28 f6 c0 30 00 00 bf ae 14 7b 43 11 c5 1f 43 13 85 1f 42 44 7a e1 42 55 d7 0a 41 b2 14 7b 41 9f 85 1f 42 4f 7a e1 42 5b 47 ae 1f 25
request,5,3,39500,,05 03 9a 4c 00 19 6a 8b
response,5,3,,00 00 27 10 00 00 27 10 00 00 13 88 00 00 13 88 00 27 00 01 1d 88 00 00 00 00 00 5f 00 01 00 04 27 e0 00 04 07 ea 00 00 01 b3 00 00 00 00 00 00 00 00,05 03 32 00 00 27 10 00 00 27 10 00 00 13 88 00 00 13 88 00 27 00 01 1d 88 00 00 00 00 00 5f 00 01 00 04 27 e0 00 04 07 ea 00 00 01 b3 00 00 00 00 00 00 00 00 7a a4
request,11,3,2102,,0b 03 08 36 00 50 a7 32
response,11,3,,3f ce d9 17 3e ca 3d 71 3f 2e 56 04 43 6b 00 00 43 6a 99 9a 43 6b 4c cd 43 6b 33 33 43 cb 80 00 43 cb 73 33 43 cb b3 33 43 cb 66 66 42 47 e1 48 42 97 33 33 43 67 e6 66 c2 64 00 00 c2 c6 66 66 c3 ae cc cd c3 39 19 9a c2 5d 99 9a c2 da 33 33 44 1d 13 33 43 bd b3 33 42 b5 66 66 43 1e 33 33 bd f1 a9 fc bf 1d 2f 1b bf 22 d0 e5 bf 21 47 ae 42 f7 05 1f 42 ff 28 f6 c0 30 00 00 bf ae 14 7b 43 11 c5 1f 43 13 85 1f 42 44 7a e1 42 55 d7 0a 41 b2 14 7b 41 9f 85 1f 42 4f 7a e1 42 5b 47 ae,0b 03 a0 3f ce d9 17 3e ca 3d 71 3f 2e 56 04 43 6b 00 00 43 6a 99 9a 43 6b 4c cd 43 6b 33 33 43 cb 80 00 43 cb 73 33 43 cb b3 33 43 cb 66 66 42 47 e1 48 42 97 33 33 43 67 e6 66 c2 64 00 00 c2 c6 66 66 c3 ae cc cd c3 39 19 9a c2 5d 99 9a c2 da 33 33 44 1d 13 33 43 bd b3 33 42 b5 66 66 43 1e 33 33 bd f1 a9 fc bf 1d 2f 1b bf 22 d0 e5 bf 21 47 ae 42 f7 05 1f 42 ff 28 f6 c0 30 00 00 bf ae 14 7b 43 11 c5 1f 43 13 85 1f 42 44 7a e1 42 55 d7 0a 41 b2 14 7b 41 9f 85 1f 42 4f 7a e1 42 5b 47 ae 57 80
request,11,3,2102,,0b 03 08 36 00 50 a7 32
response,11,3,,3f ce f9 db 3e c8 31 27 3f 2d 4f df 43 6b 00 00 43 6a 99 9a 43 6b 66 66 43 6b 33 33 43 cb 8c cd 43 cb 80 00 43 cb c0 00 43 cb 66 66 42 47 e1 48 42 94 cc cd 43 6a 99 9a c2 6b 33 33 c2 ca cc cd c3 af 33 33 c3 3a 19 9a c2 5e 00 00 c2 d9 66 66 44 1e 2c cd 43 be cc cd 42 b7 cc cd 43 1f 00 00 bd eb 85 1f bf 1b e7 6d bf 22 4d d3 bf 20 c4 9c 42 f7 05 1f 42 ff 28 f6 c0 30 00 00 bf ae 14 7b 43 11 c5 1f 43 13 85 1f 42 44 7a e1 42 55 d7 0a 41 b2 14 7b 41 9f 85 1f 42 4f 7a e1 42 5b 47 ae,0b 03 a0 3f ce f9 db 3e c8 31 27 3f 2d 4f df 43 6b 00 00 43 6a 99 9a 43 6b 66 66 43 6b 33 33 43 cb 8c cd 43 cb 80 00 43 cb c0 00 43 cb 66 66 42 47 e1 48 42 94 cc cd 43 6a 99 9a c2 6b 33 33 c2 ca cc cd c3 af 33 33 c3 3a 19 9a c2 5e 00 00 c2 d9 66 66 44 1e 2c cd 43 be cc cd 42 b7 cc cd 43 1f 00 00 bd eb 85 1f bf 1b e7 6d bf 22 4d d3 bf 20 c4 9c 42 f7 05 1f 42 ff 28 f6 c0 30 00 00 bf ae 14 7b 43 11 c5 1f 43 13 85 1f 42 44 7a e1 42 55 d7 0a 41 b2 14 7b 41 9f 85 1f 42 4f 7a e1 42 5b 47 ae 31 b3
request,11,3,2102,,0b 03 08 36 00 50 a7 32
response,11,3,,3f cf 1a a0 3e c9 37 4c 3f 2d 4f df 43 6b 00 00 43 6a 99 9a 43 6b 66 66 43 6b 33 33 43 cb 8c cd 43 cb 80 00 43 cb c0 00 43 cb 66 66 42 47 e1 48 42 97 cc cd 43 68 33 33 c2 65 33 33 c2 c5 cc cd c3 ac e6 66 c3 35 00 00 c2 5d 99 9a c2 da cc cd 44 1c 93 33 43 bc b3 33 42 b5 99 9a 43 1e 00 00 bd eb 85 1f bf 1b a5 e3 bf 22 4d d3 bf 20 00 00 42 f7 05 1f 42 ff 28 f6 c0 30 00 00 bf ae 14 7b 43 11 c5 1f 43 13 85 1f 42 44 7a e1 42 55 d7 0a 41 b2 14 7b 41 9f 85 1f 42 4f 7a e1 42 5b 47 ae,0b 03 a0 3f cf 1a a0 3e c9 37 4c 3f 2d 4f df 43 6b 00 00 43 6a 99 9a 43 6b 66 66 43 6b 33 33 43 cb 8c cd 43 cb 80 00 43 cb c0 00 43 cb 66 66 42 47 e1 48 42 97 cc cd 43 68 33 33 c2 65 33 33 c2 c5 cc cd c3 ac e6 66 c3 35 00 00 c2 5d 99 9a c2 da cc cd 44 1c 93 33 43 bc b3 33 42 b5 99 9a 43 1e 00 00 bd eb 85 1f bf 1b a5 e3 bf 22 4d d3 bf 20 00 00 42 f7 05 1f 42 ff 28 f6 c0 30 00 00 bf ae 14 7b 43 11 c5 1f 43 13 85 1f 42 44 7a e1 42 55 d7 0a 41 b2 14 7b 41 9f 85 1f 42 4f 7a e1 42 5b 47 ae ef bd
request,5,16,40601,00 00 13 88 00 00 13 88 1c e5 1c e5,05 10 9e 99 00 06 0c 00 00 13 88 00 00 13 88 1c e5 1c e5 93 9f
response,5,16,40601,,05 10 9e 99 00 06 be 48
request,11,3,2214,,0b 03 08 a6 00 0a 27 24
response,11,3,,40 84 7a e1 00 00 00 00 00 00 00 00 00 00 00 00 43 b8 17 0a,0b 03 14 40 84 7a e1 00 00 00 00 00 00 00 00 00 00 00 00 43 b8 17 0a b0 a8
both,5,6,49009,1d 99,05 06 bf 71 1d 99 34 bb
both,5,6,49009,1d 99,05 06 bf 71 1d 99 34 bb
request,11,3,2102,,0b 03 08 36 00 50 a7 32
response,11,3,,3f cf 1a a0 3e c9 ba 5e 3f 2e 14 7b 43 6b 19 9a 43 6a 99 9a 43 6b 80 00 43 6b 4c cd 43 cb 99 9a 43 cb 8c cd 43 cb d9 9a 43 cb 73 33 42 47 e1 48 42 93 33 33 43 68 99 9a c2 69 33 33 c2 c9 66 66 c3 ae 73 33 c3 37 cc cd c2 5e cc cd c2 da 99 9a 44 1d 66 66 43 bd 59 9a 42 b7 66 66 43 1f 33 33 bd f5 c2 8f bf 1d b2 2d bf 21 ca c1 bf 21 89 37 42 f7 05 1f 42 ff 28 f6 c0 30 00 00 bf ae 14 7b 43 11 c5 1f 43 13 85 1f 42 44 7a e1 42 55 d7 0a 41 b2 14 7b 41 9f 85 1f 42 4f 7a e1 42 5b 47 ae,0b 03 a0 3f cf 1a a0 3e c9 ba 5e 3f 2e 14 7b 43 6b 19 9a 43 6a 99 9a 43 6b 80 00 43 6b 4c cd 43 cb 99 9a 43 cb 8c cd 43 cb d9 9a 43 cb 73 33 42 47 e1 48 42 93 33 33 43 68 99 9a c2 69 33 33 c2 c9 66 66 c3 ae 73 33 c3 37 cc cd c2 5e cc cd c2 da 99 9a 44 1d 66 66 43 bd 59 9a 42 b7 66 66 43 1f 33 33 bd f5 c2 8f bf 1d b2 2d bf 21 ca c1 bf 21 89 37 42 f7 05 1f 42 ff 28 f6 c0 30 00 00 bf ae 14 7b 43 11 c5 1f 43 13 85 1f 42 44 7a e1 42 55 d7 0a 41 b2 14 7b 41 9f 85 1f 42 4f 7a e1 42 5b 47 ae 95 da
both,5,6,49000,00 03,05 06 bf 68 00 03 6c 47
both,5,6,49000,00 03,05 06 bf 68 00 03 6c 47
request,5,3,39500,,05 03 9a 4c 00 19 6a 8b
response,5,3,,00 00 27 10 00 00 27 10 00 00 13 88 00 00 13 88 00 27 00 01 1d 68 00 00 00 00 00 65 00 01 00 04 27 e0 00 04 07 ea 00 00 01 b3 00 00 00 00 00 00 00 00,05 03 32 00 00 27 10 00 00 27 10 00 00 13 88 00 00 13 88 00 27 00 01 1d 68 00 00 00 00 00 65 00 01 00 04 27 e0 00 04 07 ea 00 00 01 b3 00 00 00 00 00 00 00 00 d3 c6
request,11,3,2102,,0b 03 08 36 00 50 a7 32
error,0,0,0,,0b 03 a0 3f d2 f1 aa 3e c8 31 27 3f 2c cc cd 43 6b 19 9a 43 6a 99 9a 43 6b 80 00 43 6b 4c cd 43 cb 99 9a 43 cb 8c cd 43 cb d9 9a 43 cb 73 33 42 47 e1 48 42 a2 00 00 43 6d e6 66 c2 64 cc cd c2 c7 99 9a c3 af 4c cd c3 3a 99 9a c2 5c cc cd c2 d9 99 9a 44 1e a0 00 43 c0 cc cd 42 b6 00 00 43 1d cc cd bd f5 c2 8f bf 1d f3 b6 bf 22 d0 e5 bf 00 00 44 1d 33 33 43 bd f3 33 42 b5 66 66 43 1e 19 9a bd f5 c2 8f bf 1d 2f 1b bf 22 4d d3 bf 22 0c 4a 42 f7 05 1f 42 ff 28 f6 c0 30 00 00 bf ae 14 7b 43 11 c5 1f 43 13 85 1f 42 44 7a e1 42 55 d7 0a 41 b2 14 7b 41 9f 85 1f 42 4f 7a e1 42 5b 47 ae 71 3d
request,5,3,31565,,05 03 7b 4d 00 06 4c bf
response,5,3,,01 34 00 00 00 00 00 00 00 00 00 00,05 03 0c 01 34 00 00 00 00 00 00 00 00 00 00 80 80
request,11,3,2102,,0b 03 08 36 00 50 a7 32
response,11,3,,3f d0 83 12 3e c7 2b 02 3f 2d 91 68 43 6b 19 9a 43 6a b3 33 43 6b 99 9a 43 6b 33 33 43 cb 99 9a 43 cb 99 9a 43 cb d9 9a 43 cb 73 33 42 47 e1 48 42 92 99 9a 43 64 e6 66 c2 60 cc cd c2 c6 99 9a c3 ad d9 9a c3 37 b3 33 c2 5d 33 33 c2 d9 66 66 44 1b e6 66 43 bb b3 33 42 b5 66 66 43 1d 66 66 bd f5 c2 8f bf 1d 2f 1b bf 22 4d d3 bf 22 0c 4a 42 f7 05 1f 42 ff 28 f6 c0 30 00 00 bf ae 14 7b 43 11 c5 1f 43 13 85 1f 42 44 7a e1 42 55 d7 0a 41 b2 14 7b 41 9f 85 1f 42 4f 7a e1 42 5b 47 ae,0b 03 a0 3f d0 83 12 3e c7 2b 02 3f 2d 91 68 43 6b 19 9a 43 6a b3 33 43 6b 99 9a 43 6b 33 33 43 cb 99 9a 43 cb 99 9a 43 cb d9 9a 43 cb 73 33 42 47 e1 48 42 92 99 9a 43 64 e6 66 c2 60 cc cd c2 c6 99 9a c3 ad d9 9a c3 37 b3 33 c2 5d 33 33 c2 d9 66 66 44 1b e6 66 43 bb b3 33 42 b5 66 66 43 1d 66 66 bd f5 c2 8f bf 1d 2f 1b bf 22 4d d3 bf 22 0c 4a 42 f7 05 1f 42 ff 28 f6 c0 30 00 00 bf ae 14 7b 43 11 c5 1f 43 13 85 1f 42 44 7a e1 42 55 d7 0a 41 b2 14 7b 41 9f 85 1f 42 4f 7a e1 42 5b 47 ae 58 7c
both,5,6,49000,00 03,05 06 bf 68 00 03 6c 47
both,5,6,49000,00 03,05 06 bf 68 00 03 6c 47
request,5,16,40601,00 00 13 88 00 00 13 88 1c d6 1c d6,05 10 9e 99 00 06 0c 00 00 13 88 00 00 13 88 1c d6 1c d6 23 85
response,5,16,40601,,05 10 9e 99 00 06 be 48
request,11,3,2102,,0b 03 08 36 00 50 a7 32
error,0,0,0,,0b 03 a0 3f cf 1a a0 3e c8 31 27 3f 2c cc cd 43 6b 33 33 43 6a b3 33 43 6b 99 9a 43 6b 4c cd 43 cb a6 66 43 cb 99 9a 43 cb e6 66 43 cb 80 00 42 47 e1 48 42 97 99 9a 43 67 cc cd c2 67 99 9a c2 c4 00 00 c3 ac 73 33 c3 33 cc cd c2 5d 99 9a c2 db 33 33 44 1c 59 9a 43 bc 19 9a 42 b6 99 9a 43 1d b3 33 bd ed 91 68 bf 1b a5 e3 bf 1e f9 db bf 22 0c 4a 27 e0 00 04 07 ea 00 00 01 b3 00 00 00 00 00 00 00 00 d3 c6
request,11,3,2102,,0b 03 08 36 00 50 a7 32
response,11,3,,3f d1 68 73 3e c7 2b 02 3f 2d 0e 56 43 6b 19 9a 43 6a 99 9a 43 6b 66 66 43 6b 4c cd 43 cb 8c cd 43 cb 80 00 43 cb cc cd 43 cb 73 33 42 47 e1 48 42 a1 33 33 43 6e 4c cd c2 60 66 66 c2 cb 66 66 c3 ac 40 00 c3 35 00 00 c2 5c 66 66 c2 d8 cc cd 44 1e 26 66 43 bf cc cd 42 b5 99 9a 43 1e 00 00 bd f9 db 23 bf 1c ed 91 bf 1f 7c ee bf 23 12 6f 42 f7 05 1f 42 ff 28 f6 c0 30 00 00 bf ae 14 7b 43 11 c5 1f 43 13 85 1f 42 44 7a e1 42 55 d7 0a 41 b2 14 7b 41 9f 85 1f 42 4f 7a e1 42 5b 47 ae,0b 03 a0 3f d1 68 73 3e c7 2b 02 3f 2d 0e 56 43 6b 19 9a 43 6a 99 9a 43 6b 66 66 43 6b 4c cd 43 cb 8c cd 43 cb 80 00 43 cb cc cd 43 cb 73 33 42 47 e1 48 42 a1 33 33 43 6e 4c cd c2 60 66 66 c2 cb 66 66 c3 ac 40 00 c3 35 00 00 c2 5c 66 66 c2 d8 cc cd 44 1e 26 66 43 bf cc cd 42 b5 99 9a 43 1e 00 00 bd f9 db 23 bf 1c ed 91 bf 1f 7c ee bf 23 12 6f 42 f7 05 1f 42 ff 28 f6 c0 30 00 00 bf ae 14 7b 43 11 c5 1f 43 13 85 1f 42 44 7a e1 42 55 d7 0a 41 b2 14 7b 41 9f 85 1f 42 4f 7a e1 42 5b 47 ae c7 01
request,5,16,40601,00 00 13 88 00 00 13 88 1c ce 1c ce,05 10 9e 99 00 06 0c 00 00 13 88 00 00 13 88 1c ce 1c ce a3 88
response,5,16,40601,,05 10 9e 99 00 06 be 48
request,5,3,32051,,05 03 7d 33 00 09 6c 2b
response,5,3,,00 01 02 0e 00 0b 00 00 00 2b 01 29 01 05 00 3e 00 64,05 03 12 00 01 02 0e 00 0b 00 00 00 2b 01 29 01 05 00 3e 00 64 cd 71
error,0,0,0,,ff 28 f6 c0 30 00 00 bf ae 14 7b 43 11 c5 1f 43 13 85 1f 42 44 7a 42 55 d7 0a 41 b2 14 7b 41 9f 85 1f 42 4f 7a e1 42 5b 47 ae 9e f4
both,5,6,49000,00 03,05 06 bf 68 00 03 6c 47
both,5,6,49000,00 03,05 06 bf 68 00 03 6c 47
request,5,16,40601,00 00 13 88 00 00 13 88 1c c8 1c c8,05 10 9e 99 00 06 0c 00 00 13 88 00 00 13 88 1c c8 1c c8 c3 8b
response,5,16,40601,,05 10 9e 99 00 06 be 48
request,11,3,2102,,0b 03 08 36 00 50 a7 32
response,11,3,,3f d3 b6 46 3e c8 31 27 3f 2c 49 ba 43 6b 19 9a 43 6a 99 9a 43 6b 80 00 43 6b 4c cd 43 cb 99 9a 43 cb 8c cd 43 cb d9 9a 43 cb 73 33 42 47 e1 48 42 b0 cc cd 43 74 19 9a c2 5b 99 9a c2 c9 66 66 c3 ab 26 66 c3 33 19 9a c2 5e 00 00 c2 d7 00 00 44 1e c6 66 43 c1 73 33 42 b5 cc cd 43 1d 33 33 bd f7 ce d9 bf 1b e7 6d bf 1c 28 f6 bf 23 12 6f 42 f7 05 1f 42 ff 28 f6 c0 30 00 00 bf ae 14 7b 43 11 c5 1f 43 13 85 1f 42 44 7a e1 42 55 d7 0a 41 b2 14 7b 41 9f 85 1f 42 4f 7a e1 42 5b 47 ae,0b 03 a0 3f d3 b6 46 3e c8 31 27 3f 2c 49 ba 43 6b 19 9a 43 6a 99 9a 43 6b 80 00 43 6b 4c cd 43 cb 99 9a 43 cb 8c cd 43 cb d9 9a 43 cb 73 33 42 47 e1 48 42 b0 cc cd 43 74 19 9a c2 5b 99 9a c2 c9 66 66 c3 ab 26 66 c3 33 19 9a c2 5e 00 00 c2 d7 00 00 44 1e c6 66 43 c1 73 33 42 b5 cc cd 43 1d 33 33 bd f7 ce d9 bf 1b e7 6d bf 1c 28 f6 bf 23 12 6f 42 f7 05 1f 42 ff 28 f6 c0 30 00 00 bf ae 14 7b 43 11 c5 1f 43 13 85 1f 42 44 7a e1 42 55 d7 0a 41 b2 14 7b 41 9f 85 1f 42 4f 7a e1 42 5b 47 ae f9 c6
error,0,0,0,,66 66 43 cb 99 9a 43 cb 59 9a 42 47 e1 48 42 8d 33 33 43 66 80 00 c2 61 99 9a c2 ce cc cd c3 a8 66 66 c3 2e 66 66 c2 60 00 00 c2 d4 99 9a 44 1c 2c cd 43 bb 26 66 42 b8 66 66 43 1e 00 00 bd f3 b6 46 bf 1c 28 f6 bf 1b 64 5a bf 24 18 93 42 f7 05 1f 42 ff 28 f6 c0 30 00 00 bf ae 14 7b 43 11 c5 1f 43 13 85 1f 42 44 7a e1 42 55 d7 0a 41 b2 14 7b 41 9f 85 1f 42 4f 7a e1 42 5b 47 ae eb 3c
request,5,3,39500,,05 03 9a 4c 00 19 6a 8b
response,5,3,,00 00 27 10 00 00 27 10 00 00 13 88 00 00 13 88 00 27 00 01 1d 4e 00 00 00 00 00 68 00 01 00 04 27 e0 00 04 07 ea 00 00 01 b3 00 00 00 00 00 00 00 00,05 03 32 00 00 27 10 00 00 27 10 00 00 13 88 00 00 13 88 00 27 00 01 1d 4e 00 00 00 00 00 68 00 01 00 04 27 e0 00 04 07 ea 00 00 01 b3 00 00 00 00 00 00 00 00 cb 33
request,11,3,2102,,0b 03 08 36 00 50 a7 32
response,11,3,,3f cd f3 b6 3e c9 37 4c 3f 2c 08 31 43 6a e6 66 43 6a 99 9a 43 6b 19 9a 43 6b 00 00 43 cb 66 66 43 cb 59 9a 43 cb 8c cd 43 cb 4c cd 42 47 e1 48 42 9d 33 33 43 6b 33 33 c2 5d 99 9a c2 ca 00 00 c3 ac 00 00 c3 35 b3 33 c2 5f 99 9a c2 d4 cc cd 44 1c 66 66 43 bc f3 33 42 b6 00 00 43 1c 99 9a be 03 12 6f bf 1e f9 db bf 1d 2f 1b bf 24 dd 2f 42 f7 05 1f 42 ff 28 f6 c0 30 00 00 bf ae 14 7b 43 11 c5 1f 43 13 85 1f 42 44 7a e1 42 55 d7 0a 41 b2 14 7b 41 9f 85 1f 42 4f 7a e1 42 5b 47 ae,0b 03 a0 3f cd f3 b6 3e c9 37 4c 3f 2c 08 31 43 6a e6 66 43 6a 99 9a 43 6b 19 9a 43 6b 00 00 43 cb 66 66 43 cb 59 9a 43 cb 8c cd 43 cb 4c cd 42 47 e1 48 42 9d 33 33 43 6b 33 33 c2 5d 99 9a c2 ca 00 00 c3 ac 00 00 c3 35 b3 33 c2 5f 99 9a c2 d4 cc cd 44 1c 66 66 43 bc f3 33 42 b6 00 00 43 1c 99 9a be 03 12 6f bf 1e f9 db bf 1d 2f 1b bf 24 dd 2f 42 f7 05 1f 42 ff 28 f6 c0 30 00 00 bf ae 14 7b 43 11 c5 1f 43 13 85 1f 42 44 7a e1 42 55 d7 0a 41 b2 14 7b 41 9f 85 1f 42 4f 7a e1 42 5b 47 ae ee 49
request,5,3,32351,,05 03 7e 5f 00 09 ac 72
response,5,3,,00 00 00 00 00 00 00 00 00 00 00 00 00 00 00 00 00 00,05 03 12 00 00 00 00 00 00 00 00 00 00 00 00 00 00 00 00 00 00 b7 06
request,11,3,2102,,0b 03 08 36 00 50 a7 32
error,0,0,0,,0b 03 a0 3f ce b8 52 3e ca 3d 71 3f 2c 08 31 43 6a e6 66 43 6a 99 9a 43 6b 33 33 43 6a e6 66 43 cb 66 66 43 cb 66 66 43 cb 8c cd 43 cb 40 00 42 47 eb 85 42 94 66 66 43 64 b3 33 c2 5a 00 00 c2 c8 00 00 c3 ae 66 66 c3 3a 80 00 c2 60 00 00 c2 d4 99 9a 44 1c 06 66 43 bc 99 9a 42 b6 00 00 43 1b cc cd bd fb e7 6d bf 1e 76 c9 bf 1a 9f be bf c3 32 4c cd c2 65 33 33 c2 d7 33 33 44 1d 06 66 43 bd b3 33 42 b8 00 00 43 1c 80 00 bd f5 c2 8f bf 1b a5 e3 bf 1d 70 a4 bf 21 06 25 42 f7 05 1f 42 ff 28 f6 c0 30 00 00 bf ae 14 7b 43 11 c5 1f 43 13 85 1f 42 44 7a e1 42 55 d7 0a 41 b2 14 7b 41 9f 85 1f 42 4f 7a e1 42 5b 47 ae cf 9f
request,5,3,30101,,05 03 75 95 00 09 8e 68
response,5,3,,00 01 1d 4e 00 00 00 27 00 64 00 00 00 68 01 b3 00 00,05 03 12 00 01 1d 4e 00 00 00 27 00 64 00 00 00 68 01 b3 00 00 5b 5f
request,5,3,39500,,05 03 9a 4c 00 19 6a 8b
response,5,3,,00 00 27 10 00 00 27 10 00 00 13 88 00 00 13 88 00 27 00 01 1d 4e 00 00 00 00 00 68 00 01 00 04 27 e1 00 04 07 ea 00 00 01 b3 00 00 00 00 00 00 00 00,05 03 32 00 00 27 10 00 00 27 10 00 00 13 88 00 00 13 88 00 27 00 01 1d 4e 00 00 00 00 00 68 00 01 00 04 27 e1 00 04 07 ea 00 00 01 b3 00 00 00 00 00 00 00 00 9a a3
request,11,3,2102,,0b 03 08 36 00 50 a7 32
response,11,3,,3f cf 5c 29 3e ca c0 83 3f 29 fb e7 43 6a cc cd 43 6a b3 33 43 6a e6 66 43 6b 00 00 43 cb 59 9a 43 cb 4c cd 43 cb 73 33 43 cb 59 9a 42 47 eb 85 42 a6 66 66 43 6a 99 9a c2 5a cc cd c2 c1 33 33 c3 ae 80 00 c3 38 66 66 c2 64 cc cd c2 d6 cc cd 44 1c 80 00 43 bd 80 00 42 b8 33 33 43 1a cc cd be 00 00 00 bf 1c ac 08 bf 1b 64 5a bf 1e 76 c9 42 f7 05 1f 42 ff 28 f6 c0 30 00 00 bf ae 14 7b 43 11 c5 1f 43 13 85 1f 42 44 7a e1 42 55 d7 0a 41 b2 14 7b 41 9f 85 1f 42 4f 7a e1 42 5b 47 ae,0b 03 a0 3f cf 5c 29 3e ca c0 83 3f 29 fb e7 43 6a cc cd 43 6a b3 33 43 6a e6 66 43 6b 00 00 43 cb 59 9a 43 cb 4c cd 43 cb 73 33 43 cb 59 9a 42 47 eb 85 42 a6 66 66 43 6a 99 9a c2 5a cc cd c2 c1 33 33 c3 ae 80 00 c3 38 66 66 c2 64 cc cd c2 d6 cc cd 44 1c 80 00 43 bd 80 00 42 b8 33 33 43 1a cc cd be 00 00 00 bf 1c ac 08 bf 1b 64 5a bf 1e 76 c9 42 f7 05 1f 42 ff 28 f6 c0 30 00 00 bf ae 14 7b 43 11 c5 1f 43 13 85 1f 42 44 7a e1 42 55 d7 0a 41 b2 14 7b 41 9f 85 1f 42 4f 7a e1 42 5b 47 ae e6 14
request,5,16,40601,00 00 13 88 00 00 13 88 1c a2 1c a2,05 10 9e 99 00 06 0c 00 00 13 88 00 00 13 88 1c a2 1c a2 63 b8
response,5,16,40601,,05 10 9e 99 00 06 be 48
request,11,3,2214,,0b 03 08 a6 00 0a 27 24
response,11,3,,40 84 7a e1 00 00 00 00 00 00 00 00 00 00 00 00 43 b8 17 0a,0b 03 14 40 84 7a e1 00 00 00 00 00 00 00 00 00 00 00 00 43 b8 17 0a b0 a8
request,5,3,39500,,05 03 9a 4c 00 19 6a 8b
response,5,3,,00 00 27 10 00 00 27 10 00 00 13 88 00 00 13 88 00 27 00 01 1d d9 00 01 00 00 00 69 00 01 00 04 27 e1 00 04 07 ea 00 00 01 b3 00 00 00 00 00 00 00 00,05 03 32 00 00 27 10 00 00 27 10 00 00 13 88 00 00 13 88 00 27 00 01 1d d9 00 01 00 00 00 69 00 01 00 04 27 e1 00 04 07 ea 00 00 01 b3 00 00 00 00 00 00 00 00 e9 44
request,11,3,2102,,0b 03 08 36 00 50 a7 32
error,0,0,0,,bf ae 14 7b 43 11 c5 1f 43 13 85 1f 42 44 7a e1 42 55 d7 0a 41 b2 14 7b 41 9f 85 1f 42 4f 7a e1 42 5b 47 ae be de
both,5,6,49000,00 03,05 06 bf 68 00 03 6c 47
both,5,6,49000,00 03,05 06 bf 68 00 03 6c 47
request,5,16,49013,03 e8 00 96,05 10 bf 75 00 02 04 03 e8 00 96 55 ad
response,5,16,49013,,05 10 bf 75 00 02 74 42
request,11,3,2102,,0b 03 08 36 00 50 a7 32
response,11,3,,3f d0 a3 d7 3e cc 49 ba 3f 2a 3d 71 43 6b 00 00 43 6a cc cd 43 6b 19 9a 43 6b 19 9a 43 cb 80 00 43 cb 73 33 43 cb 99 9a 43 cb 73 33 42 47 f5 c3 42 8f 00 00 43 65 00 00 c2 63 33 33 c2 c9 66 66 c3 af 73 33 c3 3a 00 00 c2 66 66 66 c2 d6 66 66 44 1c f9 9a 43 bc d9 9a 42 b9 99 9a 43 1d 4c cd be 00 00 00 bf 1c ed 91 bf 1a 5e 35 bf 20 c4 9c 42 f7 05 1f 42 ff 28 f6 c0 30 00 00 bf ae 14 7b 43 11 c5 1f 43 13 85 1f 42 44 7a e1 42 55 d7 0a 41 b2 14 7b 41 9f 85 1f 42 4f 7a e1 42 5b 47 ae,0b 03 a0 3f d0 a3 d7 3e cc 49 ba 3f 2a 3d 71 43 6b 00 00 43 6a cc cd 43 6b 19 9a 43 6b 19 9a 43 cb 80 00 43 cb 73 33 43 cb 99 9a 43 cb 73 33 42 47 f5 c3 42 8f 00 00 43 65 00 00 c2 63 33 33 c2 c9 66 66 c3 af 73 33 c3 3a 00 00 c2 66 66 66 c2 d6 66 66 44 1c f9 9a 43 bc d9 9a 42 b9 99 9a 43 1d 4c cd be 00 00 00 bf 1c ed 91 bf 1a 5e 35 bf 20 c4 9c 42 f7 05 1f 42 ff 28 f6 c0 30 00 00 bf ae 14 7b 43 11 c5 1f 43 13 85 1f 42 44 7a e1 42 55 d7 0a 41 b2 14 7b 41 9f 85 1f 42 4f 7a e1 42 5b 47 ae fa 65
request,5,16,40601,00 00 13 88 00 00 13 88 1c 93 1c 93,05 10 9e 99 00 06 0c 00 00 13 88 00 00 13 88 1c 93 1c 93 f3 a3
response,5,16,40601,,05 10 9e 99 00 06 be 48
request,11,3,2102,,0b 03 08 36 00 50 a7 32
error,0,0,0,,0b 03 a0 3f cd 70 a4 3e cc 49 ba 3f 2c 08 31 43 6a e6 66 43 6a b3 33 43 6b 00 00 43 6b 19 9a 43 cb 66 66 43 cb 59 9a 43 cb 8c cd 43 cb 66 66 42 47 f5 c3 42 9e 00 00 43 6c 80 00 c2 62 cc cd c2 c9 66 66 c3 af e6 66 c3 3a 4c cd c2 66 66 66 c2 d7 66 66 44 1e 4c cd 43 bf 26 66 42 b9 cc cd 43 1d e6 66 be 00 00 00 bf 1c ed 91 bf 19 db 23 bf 89 42 f7 05 1f 42 ff 28 f6 c0 30 00 00 bf ae 14 7b 43 11 c5 1f 43 13 85 1f 42 44 7a e1 42 55 d7 0a 41 b2 14 7b 41 9f 85 1f 42 4f 7a e1 42 5b 47 ae c9 06
both,5,6,49000,00 03,05 06 bf 68 00 03 6c 47
both,5,6,49000,00 03,05 06 bf 68 00 03 6c 47
request,11,3,2102,,0b 03 08 36 00 50 a7 32
response,11,3,,3f ce b8 52 3e cf df 3b 3f 2b 43 96 43 6a 99 9a 43 69 e6 66 43 6b 4c cd 43 6a b3 33 43 cb 26 66 43 cb 26 66 43 cb 80 00 43 ca e6 66 42 47 f5 c3 42 9a 00 00 43 65 80 00 c2 60 66 66 c2 c0 99 9a c3 ae c0 00 c3 37 b3 33 c2 6a 66 66 c2 d6 33 33 44 1c c6 66 43 bc 59 9a 42 bc cc cd 43 1c 00 00 bd fb e7 6d bf 1c 6a 7f bf 19 16 87 bf 1f 3b 64 42 f7 05 1f 42 ff 28 f6 c0 30 00 00 bf ae 14 7b 43 11 c5 1f 43 13 85 1f 42 44 7a e1 42 55 d7 0a 41 b2 14 7b 41 9f 85 1f 42 4f 7a e1 42 5b 47 ae,0b 03 a0 3f ce b8 52 3e cf df 3b 3f 2b 43 96 43 6a 99 9a 43 69 e6 66 43 6b 4c cd 43 6a b3 33 43 cb 26 66 43 cb 26 66 43 cb 80 00 43 ca e6 66 42 47 f5 c3 42 9a 00 00 43 65 80 00 c2 60 66 66 c2 c0 99 9a c3 ae c0 00 c3 37 b3 33 c2 6a 66 66 c2 d6 33 33 44 1c c6 66 43 bc 59 9a 42 bc cc cd 43 1c 00 00 bd fb e7 6d bf 1c 6a 7f bf 19 16 87 bf 1f 3b 64 42 f7 05 1f 42 ff 28 f6 c0 30 00 00 bf ae 14 7b 43 11 c5 1f 43 13 85 1f 42 44 7a e1 42 55 d7 0a 41 b2 14 7b 41 9f 85 1f 42 4f 7a e1 42 5b 47 ae f0 89
request,5,16,40601,00 00 13 88 00 00 13 88 1c 85 1c 85,05 10 9e 99 00 06 0c 00 00 13 88 00 00 13 88 1c 85 1c 85 93 a9
response,5,16,40601,,05 10 9e 99 00 06 be 48
request,5,3,39500,,05 03 9a 4c 00 19 6a 8b
response,5,3,,00 00 27 10 00 00 27 10 00 00 13 88 00 00 13 88 00 27 00 01 1c f3 00 01 00 00 00 6c 00 01 00 04 27 e1 00 04 07 ea 00 00 01 b3 00 00 00 00 00 00 00 00,05 03 32 00 00 27 10 00 00 27 10 00 00 13 88 00 00 13 88 00 27 00 01 1c f3 00 01 00 00 00 6c 00 01 00 04 27 e1 00 04 07 ea 00 00 01 b3 00 00 00 00 00 00 00 00 97 4e
request,11,3,2102,,0b 03 08 36 00 50 a7 32
error,0,0,0,,0b 03 a0 3f cd f3 b6 3e cf 5c 29 3f 2b 02 0c 43 6a b3 33 43 69 e6 66 43 6b 33 33 43 6b 33 33 43 cb 40 00 43 cb 19 9a 43 cb a6 66 43 cb 19 9a 42 47 f5 c3 42 97 66 66 43 66 80 00 c2 64 cc cd c2 c3 00 00 c3 ae 26 66 c3 36 80 00 c2 6a 66 66 c2 d6 66 66 44 1c 46 66 43 bb 8c cd 42 bc 33 33 43 1b e6 66 bd fb e7 6d bf 1c 28 f6 bf 1a 1c ac bf 1c 6a 7f 42 f7 05 1f 42 a8
request,5,16,40601,00 00 13 88 00 00 13 88 1c 7d 1c 7d,05 10 9e 99 00 06 0c 00 00 13 88 00 00 13 88 1c 7d 1c 7d 13 da
response,5,16,40601,,05 10 9e 99 00 06 be 48
request,11,3,2102,,0b 03 08 36 00 50 a7 32
response,11,3,,3f d5 c2 8f 3e d0 62 4e 3f 2b c6 a8 43 6a 99 9a 43 69 e6 66 43 6b 33 33 43 6a e6 66 43 cb 33 33 43 cb 19 9a 43 cb 8c cd 43 ca f3 33 42 47 f5 c3 42 b0 33 33 43 74 e6 66 c2 67 99 9a c2 c5 99 9a c3 ad 19 9a c3 34 99 9a c2 67 99 9a c2 d7 66 66 44 1f ec cd 43 c2 73 33 42 bb cc cd 43 1c cc cd be 03 12 6f bf 1e f9 db bf 1b 64 5a bf 1f 3b 64 42 f7 05 1f 42 ff 28 f6 c0 30 00 00 bf ae 14 7b 43 11 c5 1f 43 13 85 1f 42 44 7a e1 42 55 d7 0a 41 b2 14 7b 41 9f 85 1f 42 4f 7a e1 42 5b 47 ae,0b 03 a0 3f d5 c2 8f 3e d0 62 4e 3f 2b c6 a8 43 6a 99 9a 43 69 e6 66 43 6b 33 33 43 6a e6 66 43 cb 33 33 43 cb 19 9a 43 cb 8c cd 43 ca f3 33 42 47 f5 c3 42 b0 33 33 43 74 e6 66 c2 67 99 9a c2 c5 99 9a c3 ad 19 9a c3 34 99 9a c2 67 99 9a c2 d7 66 66 44 1f ec cd 43 c2 73 33 42 bb cc cd 43 1c cc cd be 03 12 6f bf 1e f9 db bf 1b 64 5a bf 1f 3b 64 42 f7 05 1f 42 ff 28 f6 c0 30 00 00 bf ae 14 7b 43 11 c5 1f 43 13 85 1f 42 44 7a e1 42 55 d7 0a 41 b2 14 7b 41 9f 85 1f 42 4f 7a e1 42 5b 47 ae 8f d4
request,5,3,39500,,05 03 9a 4c 00 19 6a 8b
response,5,3,,00 00 27 10 00 00 27 10 00 00 13 88 00 00 13 88 00 27 00 01 1d 17 00 01 00 00 00 6c 00 01 00 04 27 e1 00 04 07 ea 00 00 01 b3 00 00 00 00 00 00 00 00,05 03 32 00 00 27 10 00 00 27 10 00 00 13 88 00 00 13 88 00 27 00 01 1d 17 00 01 00 00 00 6c 00 01 00 04 27 e1 00 04 07 ea 00 00 01 b3 00 00 00 00 00 00 00 00 96 b1
request,11,3,2102,,0b 03 08 36 00 50 a7 32
response,11,3,,3f d2 f1 aa 3e ce 56 04 3f 2b 02 0c 43 6a 99 9a 43 69 e6 66 43 6b 19 9a 43 6a e6 66 43 cb 26 66 43 cb 0c cd 43 cb 80 00 43 ca f3 33 42 47 f5 c3 42 9f 33 33 43 6b e6 66 c2 67 33 33 c2 c4 99 9a c3 ae 80 00 c3 37 66 66 c2 68 00 00 c2 d7 00 00 44 1d 6c cd 43 be 26 66 42 ba 66 66 43 1c 19 9a be 07 2b 02 bf 1f 7c ee bf 1b a5 e3 bf 20 00 00 42 f7 05 1f 42 ff 28 f6 c0 30 00 00 bf ae 14 7b 43 11 c5 1f 43 13 85 1f 42 44 7a e1 42 55 d7 0a 41 b2 14 7b 41 9f 85 1f 42 4f 7a e1 42 5b 47 ae,0b 03 a0 3f d2 f1 aa 3e ce 56 04 3f 2b 02 0c 43 6a 99 9a 43 69 e6 66 43 6b 19 9a 43 6a e6 66 43 cb 26 66 43 cb 0c cd 43 cb 80 00 43 ca f3 33 42 47 f5 c3 42 9f 33 33 43 6b e6 66 c2 67 33 33 c2 c4 99 9a c3 ae 80 00 c3 37 66 66 c2 68 00 00 c2 d7 00 00 44 1d 6c cd 43 be 26 66 42 ba 66 66 43 1c 19 9a be 07 2b 02 bf 1f 7c ee bf 1b a5 e3 bf 20 00 00 42 f7 05 1f 42 ff 28 f6 c0 30 00 00 bf ae 14 7b 43 11 c5 1f 43 13 85 1f 42 44 7a e1 42 55 d7 0a 41 b2 14 7b 41 9f 85 1f 42 4f 7a e1 42 5b 47 ae 6b 19
both,5,6,49009,1d 46,05 06 bf 71 1d 46 75 23
both,5,6,49009,1d 46,05 06 bf 71 1d 46 75 23
both,5,6,49000,00 03,05 06 bf 68 00 03 6c 47
both,5,6,49000,00 03,05 06 bf 68 00 03 6c 47
request,11,3,2102,,0b 03 08 36 00 50 a7 32
error,0,0,0,,bf ae 14 7b 43 11 c5 1f 43 13 85 1f 42 44 7a e1 42 55 d7 0a 41 b2 14 7b 41 9f 85 1f 42 4f 7a e1 42 5b 47 ae 89 db
request,5,16,40601,00 00 13 88 00 00 13 88 1c 77 1c 77,05 10 9e 99 00 06 0c 00 00 13 88 00 00 13 88 1c 77 1c 77 b3 df
response,5,16,40601,,05 10 9e 99 00 06 be 48
request,5,3,39500,,05 03 9a 4c 00 19 6a 8b
response,5,3,,00 00 27 10 00 00 27 10 00 00 13 88 00 00 13 88 00 27 00 01 1d 17 00 01 00 00 00 6c 00 01 00 04 27 e1 00 04 07 ea 00 00 01 b3 00 00 00 00 00 00 00 00,05 03 32 00 00 27 10 00 00 27 10 00 00 13 88 00 00 13 88 00 27 00 01 1d 17 00 01 00 00 00 6c 00 01 00 04 27 e1 00 04 07 ea 00 00 01 b3 00 00 00 00 00 00 00 00 96 b1
request,11,3,2102,,0b 03 08 36 00 50 a7 32
response,11,3,,3f ca 3d 71 3e ca 3d 71 3f 2b 02 0c 43 6a 80 00 43 69 cc cd 43 6b 19 9a 43 6a cc cd 43 cb 19 9a 43 cb 00 00 43 cb 73 33 43 ca e6 66 42 47 f5 c3 42 94 33 33 43 67 33 33 c2 6a 00 00 c2 c5 00 00 c3 ae cc cd c3 37 b3 33 c2 68 66 66 c2 d7 66 66 44 1b 8c cd 43 bb 73 33 42 b7 33 33 43 1b 99 9a be 04 18 93 bf 20 41 89 bf 1f be 77 bf 20 83 12 42 f7 05 1f 42 ff 28 f6 c0 30 00 00 bf ae 14 7b 43 11 c5 1f 43 13 85 1f 42 44 7a e1 42 55 d7 0a 41 b2 14 7b 41 9f 85 1f 42 4f 7a e1 42 5b 47 ae,0b 03 a0 3f ca 3d 71 3e ca 3d 71 3f 2b 02 0c 43 6a 80 00 43 69 cc cd 43 6b 19 9a 43 6a cc cd 43 cb 19 9a 43 cb 00 00 43 cb 73 33 43 ca e6 66 42 47 f5 c3 42 94 33 33 43 67 33 33 c2 6a 00 00 c2 c5 00 00 c3 ae cc cd c3 37 b3 33 c2 68 66 66 c2 d7 66 66 44 1b 8c cd 43 bb 73 33 42 b7 33 33 43 1b 99 9a be 04 18 93 bf 20 41 89 bf 1f be 77 bf 20 83 12 42 f7 05 1f 42 ff 28 f6 c0 30 00 00 bf ae 14 7b 43 11 c5 1f 43 13 85 1f 42 44 7a e1 42 55 d7 0a 41 b2 14 7b 41 9f 85 1f 42 4f 7a e1 42 5b 47 ae f4 5f
error,0,0,0,,e6 66 42 b8 cc cd 43 1d 33 33 be 03 12 6f bf 1f 7c ee bf 1e 35 3f bf 1f 7c ee 42 f7 05 1f 42 ff 28 f6 c0 30 00 00 bf ae 14 7b 43 11 c5 1f 43 13 85 1f 42 44 7a e1 42 55 d7 0a 41 b2 14 7b 41 9f 85 1f 42 4f 7a e1 42 5b 47 ae b7 78
request,5,3,39500,,05 03 9a 4c 00 19 6a 8b
response,5,3,,00 00 27 10 00 00 27 10 00 00 13 88 00 00 13 88 00 27 00 01 1d 14 00 00 00 00 00 6b 00 01 00 04 27 e1 00 04 07 ea 00 00 01 b3 00 00 00 00 00 00 00 00,05 03 32 00 00 27 10 00 00 27 10 00 00 13 88 00 00 13 88 00 27 00 01 1d 14 00 00 00 00 00 6b 00 01 00 04 27 e1 00 04 07 ea 00 00 01 b3 00 00 00 00 00 00 00 00 4e 27
request,5,3,32051,,05 03 7d 33 00 09 6c 2b
response,5,3,,00 01 02 0e 00 0c 00 00 00 32 01 29 01 06 00 3e 00 64,05 03 12 00 01 02 0e 00 0c 00 00 00 32 01 29 01 06 00 3e 00 64 25 a6
request,11,3,2102,,0b 03 08 36 00 50 a7 32
response,11,3,,3f d0 a3 d7 3e ca 3d 71 3f 2c 8b 44 43 6a 66 66 43 69 99 9a 43 6a e6 66 43 6a e6 66 43 cb 00 00 43 ca d9 9a 43 cb 66 66 43 ca d9 9a 42 47 e1 48 42 97 66 66 43 68 33 33 c2 6c 00 00 c2 c2 cc cd c3 ae 99 9a c3 36 e6 66 c2 64 66 66 c2 da 66 66 44 1c 86 66 43 bc 0c cd 42 b9 00 00 43 1d 66 66 bd fd f3 b6 bf 1e f9 db bf 20 41 89 bf 1f 3b 64 42 f7 05 1f 42 ff 28 f6 c0 30 00 00 bf ae 14 7b 43 11 c5 1f 43 13 85 1f 42 44 7a e1 42 55 d7 0a 41 b2 14 7b 41 9f 85 1f 42 4f 7a e1 42 5b 47 ae,0b 03 a0 3f d0 a3 d7 3e ca 3d 71 3f 2c 8b 44 43 6a 66 66 43 69 99 9a 43 6a e6 66 43 6a e6 66 43 cb 00 00 43 ca d9 9a 43 cb 66 66 43 ca d9 9a 42 47 e1 48 42 97 66 66 43 68 33 33 c2 6c 00 00 c2 c2 cc cd c3 ae 99 9a c3 36 e6 66 c2 64 66 66 c2 da 66 66 44 1c 86 66 43 bc 0c cd 42 b9 00 00 43 1d 66 66 bd fd f3 b6 bf 1e f9 db bf 20 41 89 bf 1f 3b 64 42 f7 05 1f 42 ff 28 f6 c0 30 00 00 bf ae 14 7b 43 11 c5 1f 43 13 85 1f 42 44 7a e1 42 55 d7 0a 41 b2 14 7b 41 9f 85 1f 42 4f 7a e1 42 5b 47 ae 1d 95
request,11,3,2102,,0b 03 08 36 00 50 a7 32
response,11,3,,3f d0 a3 d7 3e ca 3d 71 3f 2c 8b 44 43 6a 66 66 43 69 99 9a 43 6a e6 66 43 6a e6 66 43 cb 00 00 43 ca d9 9a 43 cb 66 66 43 ca d9 9a 42 47 e1 48 42 9e 33 33 43 6b 4c cd c2 69 33 33 c2 c3 66 66 c3 ae cc cd c3 36 cc cd c2 65 99 9a c2 da 99 9a 44 1d 86 66 43 bd 73 33 42 bb 66 66 43 1d 4c cd bd fd f3 b6 bf 1e f9 db bf 20 41 89 bf 1f 3b 64 42 f7 05 1f 42 ff 28 f6 c0 30 00 00 bf ae 14 7b 43 11 c5 1f 43 13 85 1f 42 44 7a e1 42 55 d7 0a 41 b2 14 7b 41 9f 85 1f 42 4f 7a e1 42 5b 47 ae,0b 03 a0 3f d0 a3 d7 3e ca 3d 71 3f 2c 8b 44 43 6a 66 66 43 69 99 9a 43 6a e6 66 43 6a e6 66 43 cb 00 00 43 ca d9 9a 43 cb 66 66 43 ca d9 9a 42 47 e1 48 42 9e 33 33 43 6b 4c cd c2 69 33 33 c2 c3 66 66 c3 ae cc cd c3 36 cc cd c2 65 99 9a c2 da 99 9a 44 1d 86 66 43 bd 73 33 42 bb 66 66 43 1d 4c cd bd fd f3 b6 bf 1e f9 db bf 20 41 89 bf 1f 3b 64 42 f7 05 1f 42 ff 28 f6 c0 30 00 00 bf ae 14 7b 43 11 c5 1f 43 13 85 1f 42 44 7a e1 42 55 d7 0a 41 b2 14 7b 41 9f 85 1f 42 4f 7a e1 42 5b 47 ae 59 6d
request,5,3,32201,,05 03 7d c9 00 09 4c 1a
response,5,3,,00 01 02 03 00 00 ff ff ff ff 01 1e 00 ff 00 10 00 64,05 03 12 00 01 02 03 00 00 ff ff ff ff 01 1e 00 ff 00 10 00 64 1b 04
request,5,16,40601,00 00 13 88 00 00 13 88 1c 7a 1c 7a,05 10 9e 99 00 06 0c 00 00 13 88 00 00 13 88 1c 7a 1c 7a e3 d9
response,5,16,40601,,05 10 9e 99 00 06 be 48
request,11,3,2102,,0b 03 08 36 00 50 a7 32
response,11,3,,3f d0 62 4e 3e cd d2 f2 3f 2e 14 7b 43 6a 66 66 43 69 80 00 43 6a e6 66 43 6a cc cd 43 ca f3 33 43 ca cc cd 43 cb 59 9a 43 ca c0 00 42 47 e1 48 42 b7 66 66 43 79 19 9a c2 66 cc cd c2 c7 33 33 c3 ad 59 9a c3 34 cc cd c2 5f 99 9a c2 db cc cd 44 1f e0 00 43 c2 00 00 42 b6 cc cd 43 20 19 9a bd fd f3 b6 bf 1e 35 3f bf 21 ca c1 bf 1d f3 b6 42 f7 05 1f 42 ff 28 f6 c0 30 00 00 bf ae 14 7b 43 11 c5 1f 43 13 85 1f 42 44 7a e1 42 55 d7 0a 41 b2 14 7b 41 9f 85 1f 42 4f 7a e1 42 5b 47 ae,0b 03 a0 3f d0 62 4e 3e cd d2 f2 3f 2e 14 7b 43 6a 66 66 43 69 80 00 43 6a e6 66 43 6a cc cd 43 ca f3 33 43 ca cc cd 43 cb 59 9a 43 ca c0 00 42 47 e1 48 42 b7 66 66 43 79 19 9a c2 66 cc cd c2 c7 33 33 c3 ad 59 9a c3 34 cc cd c2 5f 99 9a c2 db cc cd 44 1f e0 00 43 c2 00 00 42 b6 cc cd 43 20 19 9a bd fd f3 b6 bf 1e 35 3f bf 21 ca c1 bf 1d f3 b6 42 f7 05 1f 42 ff 28 f6 c0 30 00 00 bf ae 14 7b 43 11 c5 1f 43 13 85 1f 42 44 7a e1 42 55 d7 0a 41 b2 14 7b 41 9f 85 1f 42 4f 7a e1 42 5b 47 ae bc 7d
both,5,6,49000,00 03,05 06 bf 68 00 03 6c 47
both,5,6,49000,00 03,05 06 bf 68 00 03 6c 47
request,5,3,30151,,05 03 75 c7 00 01 2e 7f
response,5,3,,00 00,05 03 02 00 00 49 84
error,0,0,0,,ff 28 f6 c0 30 00 00 bf ae 14 7b 43 11 c5 1f 43 13 85 1f 42 44 7a e1 42 55 d7 0a 41 b2 14 7b 41 9f 85 1f 42 4f 7a e1 42 5b 47 ae 65 cf
request,5,3,39500,,05 03 9a 4c 00 19 6a 8b
response,5,3,,00 00 27 10 00 00 27 10 00 00 13 88 00 00 13 88 00 27 00 01 1d 14 00 00 00 00 00 6b 00 01 00 04 27 e1 00 04 07 ea 00 00 01 b3 00 00 00 00 00 00 00 00,05 03 32 00 00 27 10 00 00 27 10 00 00 13 88 00 00 13 88 00 27 00 01 1d 14 00 00 00 00 00 6b 00 01 00 04 27 e1 00 04 07 ea 00 00 01 b3 00 00 00 00 00 00 00 00 4e 27
request,11,3,2102,,0b 03 08 36 00 50 a7 32
error,0,0,0,,0b 03 a0 3f ce 76 c9 3e c9 37 4c 3f 2d 4f df 43 6a e6 66 43 6a 80 00 43 6b 19 9a 43 6b 19 9a 43 cb 66 66 43 cb 4c cd 43 cb 99 9a 43 cb 4c cd 42 47 e1 48 42 8f cc cd 43 67 b3 33 c2 6d 99 9a c2 c8 cc cd c3 ac 59 9a c3 32 4c cd c2 60 cc cd c2 dc 33 33 44 1d 20 00 43 bb 00 00 42 b9 cc cd 43 1f 19 9a be 05 1e b8 bf 20 41 89 bf 21 06 25 bf 42 ff 28 f6 c0 30 00 00 bf ae 14 7b 43 11 c5 1f 43 13 85 1f 42 44 7a e1 42 55 d7 0a 41 b2 14 7b 41 9f 85 1f 42 4f 7a e1 42 5b 47 ae 09 d7
request,11,3,2102,,0b 03 08 36 00 50 a7 32
response,11,3,,3f d1 26 e9 3e cc 49 ba 3f 2e d9 17 43 6a cc cd 43 6a 66 66 43 6a e6 66 43 6b 19 9a 43 cb 4c cd 43 cb 33 33 43 cb 80 00 43 cb 40 00 42 47 e1 48 42 a4 cc cd 43 69 00 00 c2 66 66 66 c2 b9 cc cd c3 ae 80 00 c3 35 99 9a c2 5b 99 9a c2 e1 00 00 44 1c ac cd 43 bc 33 33 42 b9 00 00 43 1d cc cd bd ef 9d b2 bf 1d 2f 1b bf 20 c4 9c bf 20 00 00 42 f7 05 1f 42 ff 28 f6 c0 30 00 00 bf ae 14 7b 43 11 c5 1f 43 13 85 1f 42 44 7a e1 42 55 d7 0a 41 b2 14 7b 41 9f 85 1f 42 4f 7a e1 42 5b 47 ae,0b 03 a0 3f d1 26 e9 3e cc 49 ba 3f 2e d9 17 43 6a cc cd 43 6a 66 66 43 6a e6 66 43 6b 19 9a 43 cb 4c cd 43 cb 33 33 43 cb 80 00 43 cb 40 00 42 47 e1 48 42 a4 cc cd 43 69 00 00 c2 66 66 66 c2 b9 cc cd c3 ae 80 00 c3 35 99 9a c2 5b 99 9a c2 e1 00 00 44 1c ac cd 43 bc 33 33 42 b9 00 00 43 1d cc cd bd ef 9d b2 bf 1d 2f 1b bf 20 c4 9c bf 20 00 00 42 f7 05 1f 42 ff 28 f6 c0 30 00 00 bf ae 14 7b 43 11 c5 1f 43 13 85 1f 42 44 7a e1 42 55 d7 0a 41 b2 14 7b 41 9f 85 1f 42 4f 7a e1 42 5b 47 ae 9c c6
both,5,6,49009,1c f7,05 06 bf 71 1c f7 b4 c7
both,5,6,49009,1c f7,05 06 bf 71 1c f7 b4 c7
both,5,6,49000,00 03,05 06 bf 68 00 03 6c 47
both,5,6,49000,00 03,05 06 bf 68 00 03 6c 47
request,11,3,2102,,0b 03 08 36 00 50 a7 32
error,0,0,0,,0b 03 a0 3f cf 7c ee 3e ca 3d 71 3f 2d 4f df 43 6a b3 33 43 6a 66 66 43 6a e6 66 43 6b 00 00 43 cb 4c cd 43 cb 33 33 43 cb 73 33 43 cb 40 00 42 47 e1 48 42 90 33 33 43 65 b3 33 c2 6a 66 66 c2 c6 33 33 c3 af 99 9a c3 39 cc cd c2 5b 33 33 c2 dc cc cd 44 1d 39 9a 43 bc 8c cd 42 ba 66 66 43 1e 66 66 bd f9 db 23 bf 1e b8 52 bf 20 00 00 bf 01 f4 07 f0
response,5,134,,02,05 86 02 82 60
request,11,3,2214,,0b 03 08 a6 00 0a 27 24
response,11,3,,40 84 7a e1 00 00 00 00 00 00 00 00 00 00 00 00 43 b8 17 0a,0b 03 14 40 84 7a e1 00 00 00 00 00 00 00 00 00 00 00 00 43 b8 17 0a b0 a8
both,5,6,49000,00 03,05 06 bf 68 00 03 6c 47
both,5,6,49000,00 03,05 06 bf 68 00 03 6c 47
request,5,3,30101,,05 03 75 95 00 09 8e 68
response,5,3,,00 01 1d 24 00 00 00 27 00 64 00 00 00 6d 01 b3 00 00,05 03 12 00 01 1d 24 00 00 00 27 00 64 00 00 00 6d 01 b3 00 00 7d 70
request,11,3,2102,,0b 03 08 36 00 50 a7 32
response,11,3,,3f cf df 3b 3e cb 43 96 3f 2d 91 68 43 6a e6 66 43 6a b3 33 43 6b 19 9a 43 6a e6 66 43 cb 66 66 43 cb 66 66 43 cb 80 00 43 cb 4c cd 42 47 e1 48 42 99 99 9a 43 69 66 66 c2 5f 99 9a c2 c9 66 66 c3 af 40 00 c3 3b 66 66 c2 5a 66 66 c2 d8 cc cd 44 1d b9 9a 43 be 8c cd 42 b8 00 00 43 1d b3 33 be 06 24 dd bf 1f 3b 64 bf 1d f3 b6 bf 1c ed 91 42 f7 05 1f 42 ff 28 f6 c0 30 00 00 bf ae 14 7b 43 11 c5 1f 43 13 85 1f 42 44 7a e1 42 55 d7 0a 41 b2 14 7b 41 9f 85 1f 42 4f 7a e1 42 5b 47 ae,0b 03 a0 3f cf df 3b 3e cb 43 96 3f 2d 91 68 43 6a e6 66 43 6a b3 33 43 6b 19 9a 43 6a e6 66 43 cb 66 66 43 cb 66 66 43 cb 80 00 43 cb 4c cd 42 47 e1 48 42 99 99 9a 43 69 66 66 c2 5f 99 9a c2 c9 66 66 c3 af 40 00 c3 3b 66 66 c2 5a 66 66 c2 d8 cc cd 44 1d b9 9a 43 be 8c cd 42 b8 00 00 43 1d b3 33 be 06 24 dd bf 1f 3b 64 bf 1d f3 b6 bf 1c ed 91 42 f7 05 1f 42 ff 28 f6 c0 30 00 00 bf ae 14 7b 43 11 c5 1f 43 13 85 1f 42 44 7a e1 42 55 d7 0a 41 b2 14 7b 41 9f 85 1f 42 4f 7a e1 42 5b 47 ae 72 a3
request,5,16,40601,00 00 13 88 00 00 13 88 1c 7d 1c 7d,05 10 9e 99 00 06 0c 00 00 13 88 00 00 13 88 1c 7d 1c 7d 13 da
response,5,16,40601,,05 10 9e 99 00 06 be 48
request,5,3,39500,,05 03 9a 4c 00 19 6a 8b
response,5,3,,00 00 27 10 00 00 27 10 00 00 13 88 00 00 13 88 00 27 00 01 1d 24 00 00 00 00 00 6d 00 01 00 04 27 e1 00 04 07 ea 00 00 01 b3 00 00 00 00 00 00 00 00,05 03 32 00 00 27 10 00 00 27 10 00 00 13 88 00 00 13 88 00 27 00 01 1d 24 00 00 00 00 00 6d 00 01 00 04 27 e1 00 04 07 ea 00 00 01 b3 00 00 00 00 00 00 00 00 e5 89
request,11,3,2102,,0b 03 08 36 00 50 a7 32
response,11,3,,3f cf 5c 29 3e cb c6 a8 3f 2d 0e 56 43 6a e6 66 43 6a b3 33 43 6b 19 9a 43 6b 00 00 43 cb 66 66 43 cb 66 66 43 cb 8c cd 43 cb 59 9a 42 47 e1 48 42 ae 66 66 43 75 80 00 c2 60 66 66 c2 cc 33 33 c3 ad d9 9a c3 39 19 9a c2 5b 33 33 c2 d7 99 9a 44 1f 80 00 43 c2 26 66 42 b7 66 66 43 1d e6 66 bd f3 b6 46 bf 1c ac 08 bf 1d 70 a4 bf 22 d0 e5 42 f7 05 1f 42 ff 28 f6 c0 30 00 00 bf ae 14 7b 43 11 c5 1f 43 13 85 1f 42 44 7a e1 42 55 d7 0a 41 b2 14 7b 41 9f 85 1f 42 4f 7a e1 42 5b 47 ae,0b 03 a0 3f cf 5c 29 3e cb c6 a8 3f 2d 0e 56 43 6a e6 66 43 6a b3 33 43 6b 19 9a 43 6b 00 00 43 cb 66 66 43 cb 66 66 43 cb 8c cd 43 cb 59 9a 42 47 e1 48 42 ae 66 66 43 75 80 00 c2 60 66 66 c2 cc 33 33 c3 ad d9 9a c3 39 19 9a c2 5b 33 33 c2 d7 99 9a 44 1f 80 00 43 c2 26 66 42 b7 66 66 43 1d e6 66 bd f3 b6 46 bf 1c ac 08 bf 1d 70 a4 bf 22 d0 e5 42 f7 05 1f 42 ff 28 f6 c0 30 00 00 bf ae 14 7b 43 11 c5 1f 43 13 85 1f 42 44 7a e1 42 55 d7 0a 41 b2 14 7b 41 9f 85 1f 42 4f 7a e1 42 5b 47 ae ac 9c
request,5,3,32051,,05 03 7d 33 00 09 6c 2b
response,5,3,,00 01 02 0e 00 0c 00 00 00 37 01 29 01 06 00 3e 00 64,05 03 12 00 01 02 0e 00 0c 00 00 00 37 01 29 01 06 00 3e 00 64 1a f6
request,11,3,2102,,0b 03 08 36 00 50 a7 32
error,0,0,0,,0b 03 a0 3f d0 e5 60 3e c7 2b 02 3f 2c 08 31 43 6a e6 66 43 6a 99 9a 43 6b 19 9a 43 6b 00 00 43 cb 66 66 43 cb 59 9a 43 cb 8c cd 43 cb 4c cd 42 47 e1 48 42 96 66 66 43 68 19 9a c2 5e 00 00 c2 ca 99 9a c3 af 19 9a c3 3b 4c cd c2 5d 33 33 c2 d7 33 33 44 1c 86 66 43 bd 19 9a 42 b5 66 66 43 1d 33 33 be 04 18 93 bf 1f be 77 bf 1d 2f 1b bf 42 f7 05 1f 42 ff 28 f6 c0 30 00 00 bf ae 14 7b 43 11 c5 1f 43 13 85 1f 42 44 7a e1 42 55 d7 0a 41 b2 14 7b 41 9f 85 1f 42 4f 7a e1 42 5b 47 ae e5 0e
both,5,6,49000,00 03,05 06 bf 68 00 03 6c 47
both,5,6,49000,00 03,05 06 bf 68 00 03 6c 47
request,11,3,2102,,0b 03 08 36 00 50 a7 32
response,11,3,,3f cf 5c 29 3e ca 3d 71 3f 2c 49 ba 43 6a cc cd 43 6a 99 9a 43 6b 00 00 43 6b 00 00 43 cb 59 9a 43 cb 4c cd 43 cb 80 00 43 cb 4c cd 42 47 e1 48 42 9d 00 00 43 6a b3 33 c2 5c 00 00 c2 ca 00 00 c3 ae a6 66 c3 3a 33 33 c2 5e 66 66 c2 d6 cc cd 44 1c 46 66 43 bd 26 66 42 b3 00 00 43 1d 33 33 be 05 1e b8 bf 20 83 12 bf 1c ac 08 bf 23 95 81 42 f7 05 1f 42 ff 28 f6 c0 30 00 00 bf ae 14 7b 43 11 c5 1f 43 13 85 1f 42 44 7a e1 42 55 d7 0a 41 b2 14 7b 41 9f 85 1f 42 4f 7a e1 42 5b 47 ae,0b 03 a0 3f cf 5c 29 3e ca 3d 71 3f 2c 49 ba 43 6a cc cd 43 6a 99 9a 43 6b 00 00 43 6b 00 00 43 cb 59 9a 43 cb 4c cd 43 cb 80 00 43 cb 4c cd 42 47 e1 48 42 9d 00 00 43 6a b3 33 c2 5c 00 00 c2 ca 00 00 c3 ae a6 66 c3 3a 33 33 c2 5e 66 66 c2 d6 cc cd 44 1c 46 66 43 bd 26 66 42 b3 00 00 43 1d 33 33 be 05 1e b8 bf 20 83 12 bf 1c ac 08 bf 23 95 81 42 f7 05 1f 42 ff 28 f6 c0 30 00 00 bf ae 14 7b 43 11 c5 1f 43 13 85 1f 42 44 7a e1 42 55 d7 0a 41 b2 14 7b 41 9f 85 1f 42 4f 7a e1 42 5b 47 ae f0 54
request,5,16,40601,00 00 13 88 00 00 13 88 1c 7f 1c 7f,05 10 9e 99 00 06 0c 00 00 13 88 00 00 13 88 1c 7f 1c 7f 33 db
response,5,16,40601,,05 10 9e 99 00 06 be 48
request,11,3,2102,,0b 03 08 36 00 50 a7 32
error,0,0,0,,bf ae 14 7b 43 11 c5 1f 43 13 85 1f 42 44 7a e1 42 55 d7 0a 41 b2 14 7b 41 9f 85 1f 42 4f 7a e1 42 5b 47 ae 4a 62
request,5,3,39500,,05 03 9a 4c 00 19 6a 8b
response,5,3,,00 00 27 10 00 00 27 10 00 00 13 88 00 00 13 88 00 27 00 01 1d 8d 00 01 00 00 00 70 00 01 00 04 27 e1 00 04 07 eb 00 00 01 b3 00 00 00 00 00 00 00 00,05 03 32 00 00 27 10 00 00 27 10 00 00 13 88 00 00 13 88 00 27 00 01 1d 8d 00 01 00 00 00 70 00 01 00 04 27 e1 00 04 07 eb 00 00 01 b3 00 00 00 00 00 00 00 00 8c 98
both,5,6,49009,1d 0a,05 06 bf 71 1d 0a 74 d6
both,5,6,49009,1d 0a,05 06 bf 71 1d 0a 74 d6
request,11,3,2102,,0b 03 08 36 00 50 a7 32
response,11,3,,3f cd 0e 56 3e c5 a1 cb 3f 2b 43 96 43 6a cc cd 43 6a cc cd 43 6a e6 66 43 6a e6 66 43 cb 59 9a 43 cb 59 9a 43 cb 66 66 43 cb 59 9a 42 47 eb 85 42 8e 66 66 43 62 4c cd c2 5e 66 66 c2 c6 cc cd c3 ae 99 9a c3 39 66 66 c2 64 00 00 c2 d5 99 9a 44 1a d9 9a 43 ba 26 66 42 b5 33 33 43 1c 80 00 bd ed 91 68 bf 1b e7 6d bf 1c ed 91 bf 23 12 6f 42 f7 05 1f 42 ff 28 f6 c0 30 00 00 bf ae 14 7b 43 11 c5 1f 43 13 85 1f 42 44 7a e1 42 55 d7 0a 41 b2 14 7b 41 9f 85 1f 42 4f 7a e1 42 5b 47 ae,0b 03 a0 3f cd 0e 56 3e c5 a1 cb 3f 2b 43 96 43 6a cc cd 43 6a cc cd 43 6a e6 66 43 6a e6 66 43 cb 59 9a 43 cb 59 9a 43 cb 66 66 43 cb 59 9a 42 47 eb 85 42 8e 66 66 43 62 4c cd c2 5e 66 66 c2 c6 cc cd c3 ae 99 9a c3 39 66 66 c2 64 00 00 c2 d5 99 9a 44 1a d9 9a 43 ba 26 66 42 b5 33 33 43 1c 80 00 bd ed 91 68 bf 1b e7 6d bf 1c ed 91 bf 23 12 6f 42 f7 05 1f 42 ff 28 f6 c0 30 00 00 bf ae 14 7b 43 11 c5 1f 43 13 85 1f 42 44 7a e1 42 55 d7 0a 41 b2 14 7b 41 9f 85 1f 42 4f 7a e1 42 5b 47 ae bc 83
both,5,6,49000,00 03,05 06 bf 68 00 03 6c 47
both,5,6,49000,00 03,05 06 bf 68 00 03 6c 47
request,5,3,30101,,05 03 75 95 00 09 8e 68
response,5,3,,00 01 1d 8d 00 01 00 27 00 64 00 00 00 70 01 b3 00 00,05 03 12 00 01 1d 8d 00 01 00 27 00 64 00 00 00 70 01 b3 00 00 fa 8d
request,11,3,2102,,0b 03 08 36 00 50 a7 32
response,11,3,,3f d0 41 89 3e c7 2b 02 3f 2c 49 ba 43 6b 00 00 43 6a cc cd 43 6b 19 9a 43 6b 19 9a 43 cb 80 00 43 cb 73 33 43 cb 99 9a 43 cb 73 33 42 47 f5 c3 42 a4 33 33 43 6d cc cd c2 60 cc cd c2 c7 00 00 c3 ad 80 00 c3 37 66 66 c2 63 99 9a c2 d5 33 33 44 1d 19 9a 43 be 66 66 42 b5 00 00 43 1d 00 00 bd eb 85 1f bf 1b 64 5a bf 1d b2 2d bf 22 d0 e5 42 f7 05 1f 42 ff 28 f6 c0 30 00 00 bf ae 14 7b 43 11 c5 1f 43 13 85 1f 42 44 7a e1 42 55 d7 0a 41 b2 14 7b 41 9f 85 1f 42 4f 7a e1 42 5b 47 ae,0b 03 a0 3f d0 41 89 3e c7 2b 02 3f 2c 49 ba 43 6b 00 00 43 6a cc cd 43 6b 19 9a 43 6b 19 9a 43 cb 80 00 43 cb 73 33 43 cb 99 9a 43 cb 73 33 42 47 f5 c3 42 a4 33 33 43 6d cc cd c2 60 cc cd c2 c7 00 00 c3 ad 80 00 c3 37 66 66 c2 63 99 9a c2 d5 33 33 44 1d 19 9a 43 be 66 66 42 b5 00 00 43 1d 00 00 bd eb 85 1f bf 1b 64 5a bf 1d b2 2d bf 22 d0 e5 42 f7 05 1f 42 ff 28 f6 c0 30 00 00 bf ae 14 7b 43 11 c5 1f 43 13 85 1f 42 44 7a e1 42 55 d7 0a 41 b2 14 7b 41 9f 85 1f 42 4f 7a e1 42 5b 47 ae 53 2a
error,0,0,0,,44 1b e0 00 43 bb 33 33 42 b6 66 66 43 1d b3 33 be 05 1e b8 bf 1f be 77 bf 1e 76 c9 bf 22 0c 4a 42 f7 05 1f 42 ff 28 f6 c0 30 00 00 bf ae 14 7b 43 11 c5 1f 43 13 85 1f 42 44 7a e1 42 55 d7 0a 41 b2 14 7b 41 9f 85 1f 42 4f 7a e1 42 5b 47 ae 5a f3
request,11,3,2102,,0b 03 08 36 00 50 a7 32
response,11,3,,3f cf df 3b 3e cb 43 96 3f 2c 49 ba 43 6a e6 66 43 6a 99 9a 43 6b 33 33 43 6b 19 9a 43 cb 73 33 43 cb 66 66 43 cb 99 9a 43 cb 59 9a 42 47 f5 c3 42 9e cc cd 43 6b 00 00 c2 61 33 33 c2 c6 66 66 c3 ae cc cd c3 38 99 9a c2 64 cc cd c2 d7 66 66 44 1d 06 66 43 bd 8c cd 42 b7 cc cd 43 1d 00 00 be 00 00 00 bf 1e f9 db bf 1e b8 52 bf 22 d0 e5 42 f7 05 1f 42 ff 28 f6 c0 30 00 00 bf ae 14 7b 43 11 c5 1f 43 13 85 1f 42 44 7a e1 42 55 d7 0a 41 b2 14 7b 41 9f 85 1f 42 4f 7a e1 42 5b 47 ae,0b 03 a0 3f cf df 3b 3e cb 43 96 3f 2c 49 ba 43 6a e6 66 43 6a 99 9a 43 6b 33 33 43 6b 19 9a 43 cb 73 33 43 cb 66 66 43 cb 99 9a 43 cb 59 9a 42 47 f5 c3 42 9e cc cd 43 6b 00 00 c2 61 33 33 c2 c6 66 66 c3 ae cc cd c3 38 99 9a c2 64 cc cd c2 d7 66 66 44 1d 06 66 43 bd 8c cd 42 b7 cc cd 43 1d 00 00 be 00 00 00 bf 1e f9 db bf 1e b8 52 bf 22 d0 e5 42 f7 05 1f 42 ff 28 f6 c0 30 00 00 bf ae 14 7b 43 11 c5 1f 43 13 85 1f 42 44 7a e1 42 55 d7 0a 41 b2 14 7b 41 9f 85 1f 42 4f 7a e1 42 5b 47 ae 04 6d
error,0,0,0,,ff 28 f6 c0 30 00 00 bf ae 14 7b 43 11 c5 1f 43 13 85 1f 42 44 7a e1 42 55 d7 41 b2 14 7b 41 9f 85 1f 42 4f 7a e1 42 5b 47 ae 9c 5a
both,5,6,49000,00 03,05 06 bf 68 00 03 6c 47
both,5,6,49000,00 03,05 06 bf 68 00 03 6c 47
request,5,16,40601,00 00 13 88 00 00 13 88 1c 83 1c 83,05 10 9e 99 00 06 0c 00 00 13 88 00 00 13 88 1c 83 1c 83 f3 aa
response,5,16,40601,,05 10 9e 99 00 06 be 48
request,11,3,2102,,0b 03 08 36 00 50 a7 32
error,0,0,0,,0b 03 a0 3f cc 49 ba 3e cc 49 ba 3f 2c 49 ba 43 6a e6 66 43 6a 99 9a 43 6b 19 9a 43 6b 33 33 43 cb 73 33 43 cb 59 9a 43 cb 99 9a 43 cb 66 66 42 47 f5 c3 42 88 00 00 43 62 19 9a c2 65 33 33 c2 c9 66 66 c3 af 73 33 c3 3a 19 9a c2 66 cc cd c2 d6 00 00 44 1b ec cd 43 ba 80 00 42 ba 33 33 43 1d 80 00 bd f7 ce d9 bf 1e b8 52 bf 1d 2f 1b bf
request,11,3,2102,,0b 03 08 36 00 50 a7 32
response,11,3,,3f cd f3 b6 3e cd d2 f2 3f 2b c6 a8 43 6a cc cd 43 6a 66 66 43 6b 4c cd 43 6a cc cd 43 cb 59 9a 43 cb 59 9a 43 cb 8c cd 43 cb 26 66 42 47 f5 c3 42 93 cc cd 43 66 80 00 c2 63 33 33 c2 c7 99 9a c3 ae b3 33 c3 3a 19 9a c2 64 66 66 c2 d4 99 9a 44 1c 99 9a 43 bc 66 66 42 b9 99 9a 43 1c cc cd bd e3 53 f8 bf 1a e1 48 bf 1c 28 f6 bf 22 8f 5c 42 f7 05 1f 42 ff 28 f6 c0 30 00 00 bf ae 14 7b 43 11 c5 1f 43 13 85 1f 42 44 7a e1 42 55 d7 0a 41 b2 14 7b 41 9f 85 1f 42 4f 7a e1 42 5b 47 ae,0b 03 a0 3f cd f3 b6 3e cd d2 f2 3f 2b c6 a8 43 6a cc cd 43 6a 66 66 43 6b 4c cd 43 6a cc cd 43 cb 59 9a 43 cb 59 9a 43 cb 8c cd 43 cb 26 66 42 47 f5 c3 42 93 cc cd 43 66 80 00 c2 63 33 33 c2 c7 99 9a c3 ae b3 33 c3 3a 19 9a c2 64 66 66 c2 d4 99 9a 44 1c 99 9a 43 bc 66 66 42 b9 99 9a 43 1c cc cd bd e3 53 f8 bf 1a e1 48 bf 1c 28 f6 bf 22 8f 5c 42 f7 05 1f 42 ff 28 f6 c0 30 00 00 bf ae 14 7b 43 11 c5 1f 43 13 85 1f 42 44 7a e1 42 55 d7 0a 41 b2 14 7b 41 9f 85 1f 42 4f 7a e1 42 5b 47 ae 32 60
request,5,16,40601,00 00 13 88 00 00 13 88 1c 84 1c 84,05 10 9e 99 00 06 0c 00 00 13 88 00 00 13 88 1c 84 1c 84 03 a9
response,5,16,40601,,05 10 9e 99 00 06 be 48
request,5,3,39500,,05 03 9a 4c 00 19 6a 8b
response,5,3,,00 00 27 10 00 00 27 10 00 00 13 88 00 00 13 88 00 27 00 01 1d a6 00 01 00 00 00 6f 00 01 00 04 27 e1 00 04 07 eb 00 00 01 b3 00 00 00 00 00 00 00 00,05 03 32 00 00 27 10 00 00 27 10 00 00 13 88 00 00 13 88 00 27 00 01 1d a6 00 01 00 00 00 6f 00 01 00 04 27 e1 00 04 07 eb 00 00 01 b3 00 00 00 00 00 00 00 00 00 10
request,11,3,2214,,0b 03 08 a6 00 0a 27 24
response,11,3,,40 84 7a e1 00 00 00 00 00 00 00 00 00 00 00 00 43 b8 17 0a,0b 03 14 40 84 7a e1 00 00 00 00 00 00 00 00 00 00 00 00 43 b8 17 0a b0 a8
request,11,3,2102,,0b 03 08 36 00 50 a7 32
response,11,3,,3f cd 2f 1b 3e cd 4f df 3f 2b 43 96 43 6a cc cd 43 6a 80 00 43 6b 4c cd 43 6a cc cd 43 cb 59 9a 43 cb 66 66 43 cb 8c cd 43 cb 33 33 42 47 f5 c3 42 88 00 00 43 62 99 9a c2 67 33 33 c2 c9 66 66 c3 ab 80 00 c3 33 80 00 c2 62 cc cd c2 d5 66 66 44 1b 53 33 43 b9 66 66 42 ba 00 00 43 1d 66 66 bd e9 78 d5 bf 1b e7 6d bf 1c 6a 7f bf 22 d0 e5 42 f7 05 1f 42 ff 28 f6 c0 30 00 00 bf ae 14 7b 43 11 c5 1f 43 13 85 1f 42 44 7a e1 42 55 d7 0a 41 b2 14 7b 41 9f 85 1f 42 4f 7a e1 42 5b 47 ae,0b 03 a0 3f cd 2f 1b 3e cd 4f df 3f 2b 43 96 43 6a cc cd 43 6a 80 00 43 6b 4c cd 43 6a cc cd 43 cb 59 9a 43 cb 66 66 43 cb 8c cd 43 cb 33 33 42 47 f5 c3 42 88 00 00 43 62 99 9a c2 67 33 33 c2 c9 66 66 c3 ab 80 00 c3 33 80 00 c2 62 cc cd c2 d5 66 66 44 1b 53 33 43 b9 66 66 42 ba 00 00 43 1d 66 66 bd e9 78 d5 bf 1b e7 6d bf 1c 6a 7f bf 22 d0 e5 42 f7 05 1f 42 ff 28 f6 c0 30 00 00 bf ae 14 7b 43 11 c5 1f 43 13 85 1f 42 44 7a e1 42 55 d7 0a 41 b2 14 7b 41 9f 85 1f 42 4f 7a e1 42 5b 47 ae 2e d7
request,11,3,2102,,0b 03 08 36 00 50 a7 32
response,11,3,,3f c2 4d d3 3e ce d9 17 3f 2a c0 83 43 6a cc cd 43 6a 80 00 43 6b 4c cd 43 6a b3 33 43 cb 59 9a 43 cb 66 66 43 cb 80 00 43 cb 26 66 42 47 f5 c3 42 6f 33 33 43 58 33 33 c2 62 66 66 c2 c7 66 66 c3 ae c0 00 c3 3a 66 66 c2 62 cc cd c2 d4 cc cd 44 1a 0c cd 43 b7 0c cd 42 ba 00 00 43 1c e6 66 bd ed 91 68 bf 1c ed 91 bf 1c ed 91 bf 22 8f 5c 42 f7 05 1f 42 ff 28 f6 c0 30 00 00 bf ae 14 7b 43 11 c5 1f 43 13 85 1f 42 44 7a e1 42 55 d7 0a 41 b2 14 7b 41 9f 85 1f 42 4f 7a e1 42 5b 47 ae,0b 03 a0 3f c2 4d d3 3e ce d9 17 3f 2a c0 83 43 6a cc cd 43 6a 80 00 43 6b 4c cd 43 6a b3 33 43 cb 59 9a 43 cb 66 66 43 cb 80 00 43 cb 26 66 42 47 f5 c3 42 6f 33 33 43 58 33 33 c2 62 66 66 c2 c7 66 66 c3 ae c0 00 c3 3a 66 66 c2 62 cc cd c2 d4 cc cd 44 1a 0c cd 43 b7 0c cd 42 ba 00 00 43 1c e6 66 bd ed 91 68 bf 1c ed 91 bf 1c ed 91 bf 22 8f 5c 42 f7 05 1f 42 ff 28 f6 c0 30 00 00 bf ae 14 7b 43 11 c5 1f 43 13 85 1f 42 44 7a e1 42 55 d7 0a 41 b2 14 7b 41 9f 85 1f 42 4f 7a e1 42 5b 47 ae c7 36
request,5,16,40601,00 00 13 88 00 00 13 88 1c 85 1c 85,05 10 9e 99 00 06 0c 00 00 13 88 00 00 13 88 1c 85 1c 85 93 a9
response,5,16,40601,,05 10 9e 99 00 06 be 48
request,5,3,39500,,05 03 9a 4c 00 19 6a 8b
response,5,3,,00 00 27 10 00 00 27 10 00 00 13 88 00 00 13 88 00 27 00 01 1d a6 00 01 00 00 00 6f 00 01 00 04 27 e1 00 04 07 eb 00 00 01 b3 00 00 00 00 00 00 00 00,05 03 32 00 00 27 10 00 00 27 10 00 00 13 88 00 00 13 88 00 27 00 01 1d a6 00 01 00 00 00 6f 00 01 00 04 27 e1 00 04 07 eb 00 00 01 b3 00 00 00 00 00 00 00 00 00 10
request,11,3,2102,,0b 03 08 36 00 50 a7 32
response,11,3,,3f c7 ae 14 3e cf 5c 29 3f 2b 85 1f 43 6a e6 66 43 6a 99 9a 43 6b 66 66 43 6a cc cd 43 cb 73 33 43 cb 80 00 43 cb 99 9a 43 cb 40 00 42 47 f5 c3 42 54 cc cd 43 53 80 00 c2 64 cc cd c2 ca 00 00 c3 ae a6 66 c3 39 33 33 c2 64 66 66 c2 d6 00 00 44 19 c0 00 43 b5 b3 33 42 bb 00 00 43 1e 00 00 bd b4 39 58 bf 15 3f 7d bf 1b 64 5a bf 22 8f 5c 42 f7 05 1f 42 ff 28 f6 c0 30 00 00 bf ae 14 7b 43 11 c5 1f 43 13 85 1f 42 44 7a e1 42 55 d7 0a 41 b2 14 7b 41 9f 85 1f 42 4f 7a e1 42 5b 47 ae,0b 03 a0 3f c7 ae 14 3e cf 5c 29 3f 2b 85 1f 43 6a e6 66 43 6a 99 9a 43 6b 66 66 43 6a cc cd 43 cb 73 33 43 cb 80 00 43 cb 99 9a 43 cb 40 00 42 47 f5 c3 42 54 cc cd 43 53 80 00 c2 64 cc cd c2 ca 00 00 c3 ae a6 66 c3 39 33 33 c2 64 66 66 c2 d6 00 00 44 19 c0 00 43 b5 b3 33 42 bb 00 00 43 1e 00 00 bd b4 39 58 bf 15 3f 7d bf 1b 64 5a bf 22 8f 5c 42 f7 05 1f 42 ff 28 f6 c0 30 00 00 bf ae 14 7b 43 11 c5 1f 43 13 85 1f 42 44 7a e1 42 55 d7 0a 41 b2 14 7b 41 9f 85 1f 42 4f 7a e1 42 5b 47 ae 56 e9
request,5,3,30101,,05 03 75 95 00 09 8e 68
response,5,3,,00 01 1d 5b 00 01 00 27 00 64 00 00 00 6d 01 b3 00 00,05 03 12 00 01 1d 5b 00 01 00 27 00 64 00 00 00 6d 01 b3 00 00 40 d1
both,5,6,49000,00 03,05 06 bf 68 00 03 6c 47
both,5,6,49000,00 03,05 06 bf 68 00 03 6c 47
request,11,3,2102,,0b 03 08 36 00 50 a7 32
error,0,0,0,,0b 03 a0 3f cd f3 b6 3e cf df 3b 3f 2b c6 a8 43 6a e6 66 43 6a 99 9a 43 6b 66 66 43 6a e6 66 43 cb 73 33 43 cb 80 00 43 cb 99 9a 43 cb 40 00 42 47 f5 c3 42 92 99 9a 43 67 33 33 c2 68 00 00 c2 c7 99 9a c3 aa 99 9a c3 30 66 66 c2 66 00 00 c2 d6 66 66 44 1c ac cd 43 bb 59 9a 42 bd 66 66 43 1d 33 33 bd be 76 c9 bf 15 c2 8f bf 19 db 23 bf 66 c2 66 cc cd c2 d5 99 9a 44 1c 26 66 43 ba cc cd 42 bb 99 9a 43 1d 00 00 bd f3 b6 46 bf 1c ac 08 bf 1c 6a 7f bf 21 89 37 42 f7 05 1f 42 ff 28 f6 c0 30 00 00 bf ae 14 7b 43 11 c5 1f 43 13 85 1f 42 44 7a e1 42 55 d7 0a 41 b2 14 7b 41 9f 85 1f 42 4f 7a e1 42 5b 47 ae 7a f4
request,11,3,2102,,0b 03 08 36 00 50 a7 32
response,11,3,,3f ce f9 db 3e cd d2 f2 3f 2b 02 0c 43 6b 00 00 43 6a 99 9a 43 6b 80 00 43 6b 19 9a 43 cb 8c cd 43 cb 8c cd 43 cb c0 00 43 cb 59 9a 42 48 00 00 42 95 cc cd 43 68 33 33 c2 68 66 66 c2 c6 33 33 c3 ae 8c cd c3 38 4c cd c2 66 00 00 c2 d6 00 00 44 1c 60 00 43 bc 40 00 42 ba 33 33 43 1b e6 66 bd f5 c2 8f bf 1d b2 2d bf 1a e1 48 bf 22 0c 4a 42 f7 05 1f 42 ff 28 f6 c0 30 00 00 bf ae 14 7b 43 11 c5 1f 43 13 85 1f 42 44 7a e1 42 55 d7 0a 41 b2 14 7b 41 9f 85 1f 42 4f 7a e1 42 5b 47 ae,0b 03 a0 3f ce f9 db 3e cd d2 f2 3f 2b 02 0c 43 6b 00 00 43 6a 99 9a 43 6b 80 00 43 6b 19 9a 43 cb 8c cd 43 cb 8c cd 43 cb c0 00 43 cb 59 9a 42 48 00 00 42 95 cc cd 43 68 33 33 c2 68 66 66 c2 c6 33 33 c3 ae 8c cd c3 38 4c cd c2 66 00 00 c2 d6 00 00 44 1c 60 00 43 bc 40 00 42 ba 33 33 43 1b e6 66 bd f5 c2 8f bf 1d b2 2d bf 1a e1 48 bf 22 0c 4a 42 f7 05 1f 42 ff 28 f6 c0 30 00 00 bf ae 14 7b 43 11 c5 1f 43 13 85 1f 42 44 7a e1 42 55 d7 0a 41 b2 14 7b 41 9f 85 1f 42 4f 7a e1 42 5b 47 ae 48 b3
request,5,3,32351,,05 03 7e 5f 00 09 ac 72
response,5,3,,00 00 00 00 00 00 00 00 00 00 00 00 00 00 00 00 00 00,05 03 12 00 00 00 00 00 00 00 00 00 00 00 00 00 00 00 00 00 00 b7 06
request,11,3,2102,,0b 03 08 36 00 50 a7 32
response,11,3,,3f ce f9 db 3e cd d2 f2 3f 2b 02 0c 43 6b 00 00 43 6a 99 9a 43 6b 80 00 43 6b 19 9a 43 cb 8c cd 43 cb 8c cd 43 cb c0 00 43 cb 59 9a 42 48 00 00 42 8b 66 66 43 65 66 66 c2 68 00 00 c2 cb 33 33 c3 af 40 00 c3 39 cc cd c2 64 cc cd c2 d6 cc cd 44 1d 26 66 43 bc 4c cd 42 ba 33 33 43 1e cc cd bd f5 c2 8f bf 1d b2 2d bf 1a e1 48 bf 22 0c 4a 42 f7 05 1f 42 ff 28 f6 c0 30 00 00 bf ae 14 7b 43 11 c5 1f 43 13 85 1f 42 44 7a e1 42 55 d7 0a 41 b2 14 7b 41 9f 85 1f 42 4f 7a e1 42 5b 47 ae,0b 03 a0 3f ce f9 db 3e cd d2 f2 3f 2b 02 0c 43 6b 00 00 43 6a 99 9a 43 6b 80 00 43 6b 19 9a 43 cb 8c cd 43 cb 8c cd 43 cb c0 00 43 cb 59 9a 42 48 00 00 42 8b 66 66 43 65 66 66 c2 68 00 00 c2 cb 33 33 c3 af 40 00 c3 39 cc cd c2 64 cc cd c2 d6 cc cd 44 1d 26 66 43 bc 4c cd 42 ba 33 33 43 1e cc cd bd f5 c2 8f bf 1d b2 2d bf 1a e1 48 bf 22 0c 4a 42 f7 05 1f 42 ff 28 f6 c0 30 00 00 bf ae 14 7b 43 11 c5 1f 43 13 85 1f 42 44 7a e1 42 55 d7 0a 41 b2 14 7b 41 9f 85 1f 42 4f 7a e1 42 5b 47 ae ab c8
both,5,6,40210,01 f4,05 06 9d 12 01 f4 07 f0
response,5,134,,02,05 86 02 82 60
request,11,3,2214,,0b 03 08 a6 00 0a 27 24
response,11,3,,40 84 7a e1 00 00 00 00 00 00 00 00 00 00 00 00 43 b8 17 0a,0b 03 14 40 84 7a e1 00 00 00 00 00 00 00 00 00 00 00 00 43 b8 17 0a b0 a8
error,0,0,0,,c3 af 8c cd c3 39 19 9a c2 68 00 00 c2 d7 99 9a 44 1e e6 66 43 bf 99 9a 42 bd cc cd 43 1d 66 66 bd ed 91 68 bf 1c 6a 7f bf 1d 2f 1b bf 22 0c 4a 42 f7 05 1f 42 ff 28 f6 c0 30 00 00 bf ae 14 7b 43 11 c5 1f 43 13 85 1f 42 44 7a e1 42 55 d7 0a 41 b2 14 7b 41 9f 85 1f 42 4f 7a e1 42 5b 47 ae 2c 25
request,5,3,30151,,05 03 75 c7 00 01 2e 7f
response,5,3,,00 00,05 03 02 00 00 49 84
request,11,3,2102,,0b 03 08 36 00 50 a7 32
response,11,3,,3f d1 26 e9 3e cf df 3b 3f 2b 85 1f 43 6b 00 00 43 6a 66 66 43 6b 80 00 43 6b 4c cd 43 cb 8c cd 43 cb 73 33 43 cb d9 9a 43 cb 59 9a 42 48 00 00 42 93 00 00 43 67 99 9a c2 69 33 33 c2 c7 66 66 c3 b0 19 9a c3 3a 66 66 c2 67 33 33 c2 d8 00 00 44 1d c0 00 43 bd 33 33 42 bd 00 00 43 1d e6 66 bd fd f3 b6 bf 1d f3 b6 bf 1b 64 5a bf 21 47 ae 42 f7 05 1f 42 ff 28 f6 c0 30 00 00 bf ae 14 7b 43 11 c5 1f 43 13 85 1f 42 44 7a e1 42 55 d7 0a 41 b2 14 7b 41 9f 85 1f 42 4f 7a e1 42 5b 47 ae,0b 03 a0 3f d1 26 e9 3e cf df 3b 3f 2b 85 1f 43 6b 00 00 43 6a 66 66 43 6b 80 00 43 6b 4c cd 43 cb 8c cd 43 cb 73 33 43 cb d9 9a 43 cb 59 9a 42 48 00 00 42 93 00 00 43 67 99 9a c2 69 33 33 c2 c7 66 66 c3 b0 19 9a c3 3a 66 66 c2 67 33 33 c2 d8 00 00 44 1d c0 00 43 bd 33 33 42 bd 00 00 43 1d e6 66 bd fd f3 b6 bf 1d f3 b6 bf 1b 64 5a bf 21 47 ae 42 f7 05 1f 42 ff 28 f6 c0 30 00 00 bf ae 14 7b 43 11 c5 1f 43 13 85 1f 42 44 7a e1 42 55 d7 0a 41 b2 14 7b 41 9f 85 1f 42 4f 7a e1 42 5b 47 ae 93 f9
request,5,16,40601,00 00 13 88 00 00 13 88 1c 88 1c 88,05 10 9e 99 00 06 0c 00 00 13 88 00 00 13 88 1c 88 1c 88 c3 af
response,5,16,40601,,05 10 9e 99 00 06 be 48
request,5,3,39500,,05 03 9a 4c 00 19 6a 8b
response,5,3,,00 00 27 10 00 00 27 10 00 00 13 88 00 00 13 88 00 27 00 01 1d bb 00 01 00 00 00 6c 00 01 00 04 27 e1 00 04 07 eb 00 00 01 b3 00 00 00 00 00 00 00 00,05 03 32 00 00 27 10 00 00 27 10 00 00 13 88 00 00 13 88 00 27 00 01 1d bb 00 01 00 00 00 6c 00 01 00 04 27 e1 00 04 07 eb 00 00 01 b3 00 00 00 00 00 00 00 00 94 e1
error,0,0,0,,ff 28 f6 c0 30 00 00 bf ae 14 7b 43 11 c5 1f 43 13 85 1f 42 44 7a e1 42 55 d7 0a 41 b2 14 7b 41 9f 85 1f 42 4f 7a e1 42 5b 47 ae 99 45
request,11,3,2102,,0b 03 08 36 00 50 a7 32
error,0,0,0,,0b 03 a0 3f ce 14 7b 3e ce 56 04 3f 2c 08 31 43 6b 19 9a 43 6a 99 9a 43 6b 99 9a 43 6b 4c cd 43 cb a6 66 43 cb 99 9a 43 cb e6 66 43 cb 73 33 42 48 00 00 42 91 cc cd 43 66 4c cd c2 64 00 00 c2 c8 99 9a c3 af a6 66 c3 3a cc cd c2 65 33 33 c2 d6 33 33 44 1c c0 00 43 bc 73 33 42 ba 33 33 43 1c e6 66 bd f1 a9 fc bf 1c ac 08 bf 1b a5 e3 bf 66 43 cb 73 33 42 47 f5 c3 42 91 99 9a 43 64 b3 33 c2 64 00 00 c2 c5 cc cd c3 ad d9 9a c3 36 33 33 c2 68 cc cd c2 d6 66 66 44 1b 59 9a 43 b9 73 33 42 bb 66 66 43 1c 99 9a bd e3 53 f8 bf 1b e7 6d bf 1e f9 db bf 22 d0 e5 42 f7 05 1f 42 ff 28 f6 c0 30 00 00 bf af 5c 29 43 11 c5 1f 43 13 85 1f 42 44 7a e1 42 55 d7 0a 41 b2 14 7b 41 9f 85 1f 42 4f 7a e1 42 5b 51 ec c9 ad
request,11,3,2102,,0b 03 08 36 00 50 a7 32
response,11,3,,3f ca 7e fa 3e cd 4f df 3f 2b 85 1f 43 6b 33 33 43 6a 99 9a 43 6b b3 33 43 6b 4c cd 43 cb a6 66 43 cb 99 9a 43 cb e6 66 43 cb 73 33 42 47 f5 c3 42 8f 99 9a 43 63 4c cd c2 5f 33 33 c2 c7 33 33 c3 ac 00 00 c3 37 4c cd c2 63 99 9a c2 d7 33 33 44 1b 39 9a 43 b8 cc cd 42 ba 99 9a 43 1d cc cd bd e3 53 f8 bf 1b e7 6d bf 1e f9 db bf 22 d0 e5 42 f7 05 1f 42 ff 28 f6 c0 30 00 00 bf af 5c 29 43 11 c5 1f 43 13 85 1f 42 44 7a e1 42 55 d7 0a 41 b2 14 7b 41 9f 85 1f 42 4f 7a e1 42 5b 51 ec,0b 03 a0 3f ca 7e fa 3e cd 4f df 3f 2b 85 1f 43 6b 33 33 43 6a 99 9a 43 6b b3 33 43 6b 4c cd 43 cb a6 66 43 cb 99 9a 43 cb e6 66 43 cb 73 33 42 47 f5 c3 42 8f 99 9a 43 63 4c cd c2 5f 33 33 c2 c7 33 33 c3 ac 00 00 c3 37 4c cd c2 63 99 9a c2 d7 33 33 44 1b 39 9a 43 b8 cc cd 42 ba 99 9a 43 1d cc cd bd e3 53 f8 bf 1b e7 6d bf 1e f9 db bf 22 d0 e5 42 f7 05 1f 42 ff 28 f6 c0 30 00 00 bf af 5c 29 43 11 c5 1f 43 13 85 1f 42 44 7a e1 42 55 d7 0a 41 b2 14 7b 41 9f 85 1f 42 4f 7a e1 42 5b 51 ec f2 c8
both,5,6,49000,00 03,05 06 bf 68 00 03 6c 47
both,5,6,49000,00 03,05 06 bf 68 00 03 6c 47
request,5,16,40601,00 00 13 88 00 00 13 88 1c 8b 1c 8b,05 10 9e 99 00 06 0c 00 00 13 88 00 00 13 88 1c 8b 1c 8b 73 ae
response,5,16,40601,,05 10 9e 99 00 06 be 48
request,11,3,2102,,0b 03 08 36 00 50 a7 32
error,0,0,0,,0b 03 a0 3f ca 1c ac 3e cd 4f df 3f 2b 43 96 43 6b 33 33 43 6a 99 9a 43 6b b3 33 43 6b 4c cd 43 cb a6 66 43 cb 99 9a 43 cb e6 66 43 cb 73 33 42 48 00 00 42 7d 33 33 43 5e 66 66 c2 67 33 33 c2 ca 99 9a c3 ad 40 00 c3 36 99 9a c2 65 99 9a c2 d5 00 00 44 1b 13 33 43 b8 73 33 42 bb cc cd 43 1d 4c cd bd e5 60 42 bf 1c 6a 7f bf 1b e7 6d bf a1
request,11,3,2102,,0b 03 08 36 00 50 a7 32
response,11,3,,3f cd 0e 56 3e cd d2 f2 3f 2b 43 96 43 6b 33 33 43 6a b3 33 43 6b b3 33 43 6b 66 66 43 cb b3 33 43 cb a6 66 43 cb f3 33 43 cb 8c cd 42 48 00 00 42 90 00 00 43 67 00 00 c2 68 66 66 c2 c9 cc cd c3 af c0 00 c3 3a cc cd c2 65 33 33 c2 d6 99 9a 44 1c 73 33 43 bb d9 9a 42 bb 00 00 43 1c 80 00 bd eb 85 1f bf 1b 64 5a bf 1b a5 e3 bf 1f be 77 42 f7 05 1f 42 ff 28 f6 c0 30 00 00 bf af 5c 29 43 11 c5 1f 43 13 85 1f 42 44 7a e1 42 55 d7 0a 41 b2 14 7b 41 9f 85 1f 42 4f 7a e1 42 5b 51 ec,0b 03 a0 3f cd 0e 56 3e cd d2 f2 3f 2b 43 96 43 6b 33 33 43 6a b3 33 43 6b b3 33 43 6b 66 66 43 cb b3 33 43 cb a6 66 43 cb f3 33 43 cb 8c cd 42 48 00 00 42 90 00 00 43 67 00 00 c2 68 66 66 c2 c9 cc cd c3 af c0 00 c3 3a cc cd c2 65 33 33 c2 d6 99 9a 44 1c 73 33 43 bb d9 9a 42 bb 00 00 43 1c 80 00 bd eb 85 1f bf 1b 64 5a bf 1b a5 e3 bf 1f be 77 42 f7 05 1f 42 ff 28 f6 c0 30 00 00 bf af 5c 29 43 11 c5 1f 43 13 85 1f 42 44 7a e1 42 55 d7 0a 41 b2 14 7b 41 9f 85 1f 42 4f 7a e1 42 5b 51 ec 33 c5
request,5,3,32381,,05 03 7e 7d 00 1a 4d b5
response,5,3,,00 00 00 00 00 00 00 00 00 00 00 00 00 00 00 00 00 00 00 00 00 00 00 00 00 00 00 00 00 00 00 00 00 00 00 00 00 00 00 00 00 00 00 00 00 00 00 00 00 00 00 00,05 03 34 00 00 00 00 00 00 00 00 00 00 00 00 00 00 00 00 00 00 00 00 00 00 00 00 00 00 00 00 00 00 00 00 00 00 00 00 00 00 00 00 00 00 00 00 00 00 00 00 00 00 00 00 31 9c
request,11,3,2102,,0b 03 08 36 00 50 a7 32
response,11,3,,3f cc cc cd 3e cc 49 ba 3f 2c 49 ba 43 6b 19 9a 43 6a 99 9a 43 6b 99 9a 43 6b 4c cd 43 cb a6 66 43 cb 99 9a 43 cb e6 66 43 cb 73 33 42 48 00 00 42 9a 00 00 43 68 33 33 c2 65 33 33 c2 c3 99 9a c3 aa 26 66 c3 2e 19 9a c2 65 99 9a c2 d9 33 33 44 1c 20 00 43 bb 19 9a 42 ba 33 33 43 1d 19 9a bd ed 91 68 bf 1c ed 91 bf 1d f3 b6 bf 22 4d d3 42 f7 05 1f 42 ff 28 f6 c0 30 00 00 bf af 5c 29 43 11 c5 1f 43 13 85 1f 42 44 7a e1 42 55 d7 0a 41 b2 14 7b 41 9f 85 1f 42 4f 7a e1 42 5b 51 ec,0b 03 a0 3f cc cc cd 3e cc 49 ba 3f 2c 49 ba 43 6b 19 9a 43 6a 99 9a 43 6b 99 9a 43 6b 4c cd 43 cb a6 66 43 cb 99 9a 43 cb e6 66 43 cb 73 33 42 48 00 00 42 9a 00 00 43 68 33 33 c2 65 33 33 c2 c3 99 9a c3 aa 26 66 c3 2e 19 9a c2 65 99 9a c2 d9 33 33 44 1c 20 00 43 bb 19 9a 42 ba 33 33 43 1d 19 9a bd ed 91 68 bf 1c ed 91 bf 1d f3 b6 bf 22 4d d3 42 f7 05 1f 42 ff 28 f6 c0 30 00 00 bf af 5c 29 43 11 c5 1f 43 13 85 1f 42 44 7a e1 42 55 d7 0a 41 b2 14 7b 41 9f 85 1f 42 4f 7a e1 42 5b 51 ec 83 9a
both,5,6,49009,1d 1d,05 06 bf 71 1d 1d 34 d8
both,5,6,49009,1d 1d,05 06 bf 71 1d 1d 34 d8
request,11,3,2102,,0b 03 08 36 00 50 a7 32
response,11,3,,3f cc cc cd 3e cc 49 ba 3f 2c 49 ba 43 6b 19 9a 43 6a 99 9a 43 6b 99 9a 43 6b 4c cd 43 cb a6 66 43 cb 99 9a 43 cb e6 66 43 cb 73 33 42 48 00 00 42 a5 66 66 43 6e 4c cd c2 63 99 9a c2 c5 33 33 c3 a9 80 00 c3 2e 66 66 c2 64 66 66 c2 d6 cc cd 44 1c a0 00 43 bc d9 9a 42 b9 66 66 43 1c 00 00 bd ed 91 68 bf 1c ed 91 bf 1d f3 b6 bf 22 4d d3 42 f7 05 1f 42 ff 28 f6 c0 30 00 00 bf af 5c 29 43 11 c5 1f 43 13 85 1f 42 44 7a e1 42 55 d7 0a 41 b2 14 7b 41 9f 85 1f 42 4f 7a e1 42 5b 51 ec,0b 03 a0 3f cc cc cd 3e cc 49 ba 3f 2c 49 ba 43 6b 19 9a 43 6a 99 9a 43 6b 99 9a 43 6b 4c cd 43 cb a6 66 43 cb 99 9a 43 cb e6 66 43 cb 73 33 42 48 00 00 42 a5 66 66 43 6e 4c cd c2 63 99 9a c2 c5 33 33 c3 a9 80 00 c3 2e 66 66 c2 64 66 66 c2 d6 cc cd 44 1c a0 00 43 bc d9 9a 42 b9 66 66 43 1c 00 00 bd ed 91 68 bf 1c ed 91 bf 1d f3 b6 bf 22 4d d3 42 f7 05 1f 42 ff 28 f6 c0 30 00 00 bf af 5c 29 43 11 c5 1f 43 13 85 1f 42 44 7a e1 42 55 d7 0a 41 b2 14 7b 41 9f 85 1f 42 4f 7a e1 42 5b 51 ec 3e 51
error,0,0,0,,ec 2b fc
request,5,3,32201,,05 03 7d c9 00 09 4c 1a
response,5,3,,00 01 02 03 00 00 ff ff ff fe 01 1e 00 ff 00 10 00 64,05 03 12 00 01 02 03 00 00 ff ff ff fe 01 1e 00 ff 00 10 00 64 16 94
request,11,3,2102,,0b 03 08 36 00 50 a7 32
response,11,3,,3f d1 47 ae 3e cc 49 ba 3f 2b 02 0c 43 6b 19 9a 43 6a 99 9a 43 6b 99 9a 43 6b 33 33 43 cb 99 9a 43 cb 99 9a 43 cb d9 9a 43 cb 66 66 42 47 f5 c3 42 97 99 9a 43 67 80 00 c2 64 00 00 c2 c5 33 33 c3 ac 40 00 c3 33 4c cd c2 68 cc cd c2 d5 cc cd 44 1c 0c cd 43 bb 26 66 42 bb 33 33 43 1c 19 9a bd f9 db 23 bf 1e 35 3f bf 1d 2f 1b bf 22 8f 5c 42 f7 05 1f 42 ff 28 f6 c0 30 00 00 bf af 5c 29 43 11 c5 1f 43 13 85 1f 42 44 7a e1 42 55 d7 0a 41 b2 14 7b 41 9f 85 1f 42 4f 7a e1 42 5b 51 ec,0b 03 a0 3f d1 47 ae 3e cc 49 ba 3f 2b 02 0c 43 6b 19 9a 43 6a 99 9a 43 6b 99 9a 43 6b 33 33 43 cb 99 9a 43 cb 99 9a 43 cb d9 9a 43 cb 66 66 42 47 f5 c3 42 97 99 9a 43 67 80 00 c2 64 00 00 c2 c5 33 33 c3 ac 40 00 c3 33 4c cd c2 68 cc cd c2 d5 cc cd 44 1c 0c cd 43 bb 26 66 42 bb 33 33 43 1c 19 9a bd f9 db 23 bf 1e 35 3f bf 1d 2f 1b bf 22 8f 5c 42 f7 05 1f 42 ff 28 f6 c0 30 00 00 bf af 5c 29 43 11 c5 1f 43 13 85 1f 42 44 7a e1 42 55 d7 0a 41 b2 14 7b 41 9f 85 1f 42 4f 7a e1 42 5b 51 ec 07 3d
request,5,3,32351,,05 03 7e 5f 00 09 ac 72
response,5,3,,00 00 00 00 00 00 00 00 00 00 00 00 00 00 00 00 00 00,05 03 12 00 00 00 00 00 00 00 00 00 00 00 00 00 00 00 00 00 00 b7 06
request,5,16,40601,00 00 13 88 00 00 13 88 1c 8d 1c 8d,05 10 9e 99 00 06 0c 00 00 13 88 00 00 13 88 1c 8d 1c 8d 13 ad
response,5,16,40601,,05 10 9e 99 00 06 be 48
request,11,3,2102,,0b 03 08 36 00 50 a7 32
response,11,3,,3f ce 35 3f 3e cf 5c 29 3f 2d 0e 56 43 6b 19 9a 43 6a 99 9a 43 6b 99 9a 43 6b 4c cd 43 cb a6 66 43 cb 99 9a 43 cb e6 66 43 cb 73 33 42 47 f5 c3 42 a3 99 9a 43 6e 19 9a c2 62 cc cd c2 c7 00 00 c3 ae d9 9a c3 38 4c cd c2 65 99 9a c2 d8 00 00 44 1e 0c cd 43 be cc cd 42 ba cc cd 43 1d 00 00 be 01 06 25 bf 20 00 00 bf 1d f3 b6 bf 23 12 6f 42 f7 05 1f 42 ff 28 f6 c0 30 00 00 bf af 5c 29 43 11 c5 1f 43 13 85 1f 42 44 7a e1 42 55 d7 0a 41 b2 14 7b 41 9f 85 1f 42 4f 7a e1 42 5b 51 ec,0b 03 a0 3f ce 35 3f 3e cf 5c 29 3f 2d 0e 56 43 6b 19 9a 43 6a 99 9a 43 6b 99 9a 43 6b 4c cd 43 cb a6 66 43 cb 99 9a 43 cb e6 66 43 cb 73 33 42 47 f5 c3 42 a3 99 9a 43 6e 19 9a c2 62 cc cd c2 c7 00 00 c3 ae d9 9a c3 38 4c cd c2 65 99 9a c2 d8 00 00 44 1e 0c cd 43 be cc cd 42 ba cc cd 43 1d 00 00 be 01 06 25 bf 20 00 00 bf 1d f3 b6 bf 23 12 6f 42 f7 05 1f 42 ff 28 f6 c0 30 00 00 bf af 5c 29 43 11 c5 1f 43 13 85 1f 42 44 7a e1 42 55 d7 0a 41 b2 14 7b 41 9f 85 1f 42 4f 7a e1 42 5b 51 ec f2 04
error,0,0,0,,99 9a 44 1c f3 33 43 bb 8c cd 42 be 99 9a 43 1d 4c cd bd f3 b6 46 bf 1d 2f 1b bf 1c 6a 7f bf 22 4d d3 42 f7 05 1f 42 ff 28 f6 c0 30 00 00 bf af 5c 29 43 11 c5 1f 43 13 85 1f 42 44 7a e1 42 55 d7 0a 41 b2 14 7b 41 9f 85 1f 42 4f 7a e1 42 5b 51 ec 65 18
request,5,3,32231,,05 03 7d e7 00 1a 6d de
response,5,3,,00 00 00 00 00 00 00 00 00 00 00 00 00 00 00 00 00 00 00 00 00 00 00 00 00 00 00 00 00 00 00 00 00 00 00 00 00 35 00 02 00 03 58 99 00 03 4e ed 00 00 03 a2,05 03 34 00 00 00 00 00 00 00 00 00 00 00 00 00 00 00 00 00 00 00 00 00 00 00 00 00 00 00 00 00 00 00 00 00 00 00 00 00 35 00 02 00 03 58 99 00 03 4e ed 00 00 03 a2 99 c0
request,11,3,2214,,0b 03 08 a6 00 0a 27 24
response,11,3,,40 84 7a e1 00 00 00 00 00 00 00 00 00 00 00 00 43 b8 17 0a,0b 03 14 40 84 7a e1 00 00 00 00 00 00 00 00 00 00 00 00 43 b8 17 0a b0 a8
request,11,3,2102,,0b 03 08 36 00 50 a7 32
response,11,3,,3f cc ac 08 3e d0 62 4e 3f 2b 02 0c 43 6b 33 33 43 6a 99 9a 43 6b cc cd 43 6b 4c cd 43 cb a6 66 43 cb a6 66 43 cb f3 33 43 cb 73 33 42 48 00 00 42 8f 00 00 43 62 e6 66 c2 61 99 9a c2 c6 00 00 c3 ae c0 00 c3 3a 4c cd c2 64 00 00 c2 d4 66 66 44 1b 40 00 43 ba 19 9a 42 ba 33 33 43 1b 99 9a bd ed 91 68 bf 1c ac 08 bf 1e 35 3f bf 22 0c 4a 42 f7 05 1f 42 ff 28 f6 c0 30 00 00 bf af 5c 29 43 11 c5 1f 43 13 85 1f 42 44 7a e1 42 55 d7 0a 41 b2 14 7b 41 9f 85 1f 42 4f 7a e1 42 5b 51 ec,0b 03 a0 3f cc ac 08 3e d0 62 4e 3f 2b 02 0c 43 6b 33 33 43 6a 99 9a 43 6b cc cd 43 6b 4c cd 43 cb a6 66 43 cb a6 66 43 cb f3 33 43 cb 73 33 42 48 00 00 42 8f 00 00 43 62 e6 66 c2 61 99 9a c2 c6 00 00 c3 ae c0 00 c3 3a 4c cd c2 64 00 00 c2 d4 66 66 44 1b 40 00 43 ba 19 9a 42 ba 33 33 43 1b 99 9a bd ed 91 68 bf 1c ac 08 bf 1e 35 3f bf 22 0c 4a 42 f7 05 1f 42 ff 28 f6 c0 30 00 00 bf af 5c 29 43 11 c5 1f 43 13 85 1f 42 44 7a e1 42 55 d7 0a 41 b2 14 7b 41 9f 85 1f 42 4f 7a e1 42 5b 51 ec d2 48
request,5,16,40601,00 00 13 88 00 00 13 88 1c 8f 1c 8f,05 10 9e 99 00 06 0c 00 00 13 88 00 00 13 88 1c 8f 1c 8f 33 ac
response,5,16,40601,,05 10 9e 99 00 06 be 48
request,11,3,2102,,0b 03 08 36 00 50 a7 32
response,11,3,,3f cc 08 31 3e cd 4f df 3f 2c cc cd 43 6b 19 9a 43 6a 66 66 43 6b cc cd 43 6b 19 9a 43 cb 8c cd 43 cb 99 9a 43 cb e6 66 43 cb 40 00 42 48 00 00 42 89 66 66 43 62 cc cd c2 67 99 9a c2 c8 33 33 c3 af a6 66 c3 3a 19 9a c2 68 66 66 c2 d6 00 00 44 1b f3 33 43 ba 33 33 42 bd 66 66 43 1c 99 9a bd e7 6c 8b bf 1b a5 e3 bf 1c ac 08 bf 22 4d d3 42 f7 05 1f 42 ff 28 f6 c0 30 00 00 bf af 5c 29 43 11 c5 1f 43 13 85 1f 42 44 7a e1 42 55 d7 0a 41 b2 14 7b 41 9f 85 1f 42 4f 7a e1 42 5b 51 ec,0b 03 a0 3f cc 08 31 3e cd 4f df 3f 2c cc cd 43 6b 19 9a 43 6a 66 66 43 6b cc cd 43 6b 19 9a 43 cb 8c cd 43 cb 99 9a 43 cb e6 66 43 cb 40 00 42 48 00 00 42 89 66 66 43 62 cc cd c2 67 99 9a c2 c8 33 33 c3 af a6 66 c3 3a 19 9a c2 68 66 66 c2 d6 00 00 44 1b f3 33 43 ba 33 33 42 bd 66 66 43 1c 99 9a bd e7 6c 8b bf 1b a5 e3 bf 1c ac 08 bf 22 4d d3 42 f7 05 1f 42 ff 28 f6 c0 30 00 00 bf af 5c 29 43 11 c5 1f 43 13 85 1f 42 44 7a e1 42 55 d7 0a 41 b2 14 7b 41 9f 85 1f 42 4f 7a e1 42 5b 51 ec a1 a9
request,5,3,39500,,05 03 9a 4c 00 19 6a 8b
response,5,3,,00 00 27 10 00 00 27 10 00 00 13 88 00 00 13 88 00 27 00 01 1c 32 00 05 00 00 00 6e 00 01 00 04 27 e1 00 04 07 eb 00 00 01 b3 00 00 00 00 00 00 00 00,05 03 32 00 00 27 10 00 00 27 10 00 00 13 88 00 00 13 88 00 27 00 01 1c 32 00 05 00 00 00 6e 00 01 00 04 27 e1 00 04 07 eb 00 00 01 b3 00 00 00 00 00 00 00 00 32 ac
request,11,3,2102,,0b 03 08 36 00 50 a7 32
response,11,3,,3f cc 49 ba 3e ce 56 04 3f 2a 7e fa 43 6b 19 9a 43 6a 80 00 43 6b cc cd 43 6b 33 33 43 cb 99 9a 43 cb 99 9a 43 cb e6 66 43 cb 59 9a 42 48 00 00 42 8e 99 9a 43 62 99 9a c2 61 99 9a c2 c5 99 9a c3 af 59 9a c3 3a 4c cd c2 66 cc cd c2 d5 33 33 44 1b d3 33 43 ba 80 00 42 bb 99 9a 43 1c 66 66 bd e3 53 f8 bf 1b e7 6d bf 1c 6a 7f bf 22 8f 5c 42 f7 05 1f 42 ff 28 f6 c0 30 00 00 bf af 5c 29 43 11 c5 1f 43 13 85 1f 42 44 7a e1 42 55 d7 0a 41 b2 14 7b 41 9f 85 1f 42 4f 7a e1 42 5b 51 ec,0b 03 a0 3f cc 49 ba 3e ce 56 04 3f 2a 7e fa 43 6b 19 9a 43 6a 80 00 43 6b cc cd 43 6b 33 33 43 cb 99 9a 43 cb 99 9a 43 cb e6 66 43 cb 59 9a 42 48 00 00 42 8e 99 9a 43 62 99 9a c2 61 99 9a c2 c5 99 9a c3 af 59 9a c3 3a 4c cd c2 66 cc cd c2 d5 33 33 44 1b d3 33 43 ba 80 00 42 bb 99 9a 43 1c 66 66 bd e3 53 f8 bf 1b e7 6d bf 1c 6a 7f bf 22 8f 5c 42 f7 05 1f 42 ff 28 f6 c0 30 00 00 bf af 5c 29 43 11 c5 1f 43 13 85 1f 42 44 7a e1 42 55 d7 0a 41 b2 14 7b 41 9f 85 1f 42 4f 7a e1 42 5b 51 ec da d5
request,5,3,30159,,05 03 75 cf 00 07 2f bf
response,5,3,,00 00 00 04 27 e1 00 04 07 eb 00 01 00 03,05 03 0e 00 00 00 04 27 e1 00 04 07 eb 00 01 00 03 bd a1
request,11,3,2102,,0b 03 08 36 00 50 a7 32
response,11,3,,3f ce 76 c9 3e ce d9 17 3f 2b c6 a8 43 6b 19 9a 43 6a 66 66 43 6b b3 33 43 6b 33 33 43 cb 8c cd 43 cb 8c cd 43 cb e6 66 43 cb 4c cd 42 48 00 00 42 97 cc cd 43 69 33 33 c2 64 00 00 c2 c8 99 9a c3 b0 40 00 c3 3a cc cd c2 68 66 66 c2 d7 00 00 44 1d c0 00 43 bd 00 00 42 be cc cd 43 1d 80 00 bd f5 c2 8f bf 1c ed 91 bf 19 99 9a bf 21 89 37 42 f7 05 1f 42 ff 28 f6 c0 30 00 00 bf af 5c 29 43 11 c5 1f 43 13 85 1f 42 44 7a e1 42 55 d7 0a 41 b2 14 7b 41 9f 85 1f 42 4f 7a e1 42 5b 51 ec,0b 03 a0 3f ce 76 c9 3e ce d9 17 3f 2b c6 a8 43 6b 19 9a 43 6a 66 66 43 6b b3 33 43 6b 33 33 43 cb 8c cd 43 cb 8c cd 43 cb e6 66 43 cb 4c cd 42 48 00 00 42 97 cc cd 43 69 33 33 c2 64 00 00 c2 c8 99 9a c3 b0 40 00 c3 3a cc cd c2 68 66 66 c2 d7 00 00 44 1d c0 00 43 bd 00 00 42 be cc cd 43 1d 80 00 bd f5 c2 8f bf 1c ed 91 bf 19 99 9a bf 21 89 37 42 f7 05 1f 42 ff 28 f6 c0 30 00 00 bf af 5c 29 43 11 c5 1f 43 13 85 1f 42 44 7a e1 42 55 d7 0a 41 b2 14 7b 41 9f 85 1f 42 4f 7a e1 42 5b 51 ec 07 97
request,5,16,40601,00 00 13 88 00 00 13 88 1c 90 1c 90,05 10 9e 99 00 06 0c 00 00 13 88 00 00 13 88 1c 90 1c 90 43 a2
response,5,16,40601,,05 10 9e 99 00 06 be 48
error,0,0,0,,09 8e 68
response,5,3,,00 01 1c 32 00 05 00 27 00 64 00 00 00 6e 01 b3 00 00,05 03 12 00 01 1c 32 00 05 00 27 00 64 00 00 00 6e 01 b3 00 00 62 eb
both,5,6,49009,1d 34,05 06 bf 71 1d 34 f5 06
both,5,6,49009,1d 34,05 06 bf 71 1d 34 f5 06
request,11,3,2102,,0b 03 08 36 00 50 a7 32
response,11,3,,3f cd 70 a4 3e cb c6 a8 3f 2b 02 0c 43 6b 19 9a 43 6a 66 66 43 6b e6 66 43 6b 19 9a 43 cb 8c cd 43 cb 99 9a 43 cb e6 66 43 cb 40 00 42 47 f5 c3 42 90 33 33 43 67 4c cd c2 6b 33 33 c2 c8 cc cd c3 ae e6 66 c3 39 19 9a c2 66 cc cd c2 d6 33 33 44 1c 60 00 43 bb 19 9a 42 be 00 00 43 1c 33 33 bd eb 85 1f bf 1d 70 a4 bf 1b a5 e3 bf 21 ca c1 42 f7 05 1f 42 ff 28 f6 c0 30 00 00 bf af 5c 29 43 11 c5 1f 43 13 85 1f 42 44 7a e1 42 55 d7 0a 41 b2 14 7b 41 9f 85 1f 42 4f 7a e1 42 5b 51 ec,0b 03 a0 3f cd 70 a4 3e cb c6 a8 3f 2b 02 0c 43 6b 19 9a 43 6a 66 66 43 6b e6 66 43 6b 19 9a 43 cb 8c cd 43 cb 99 9a 43 cb e6 66 43 cb 40 00 42 47 f5 c3 42 90 33 33 43 67 4c cd c2 6b 33 33 c2 c8 cc cd c3 ae e6 66 c3 39 19 9a c2 66 cc cd c2 d6 33 33 44 1c 60 00 43 bb 19 9a 42 be 00 00 43 1c 33 33 bd eb 85 1f bf 1d 70 a4 bf 1b a5 e3 bf 21 ca c1 42 f7 05 1f 42 ff 28 f6 c0 30 00 00 bf af 5c 29 43 11 c5 1f 43 13 85 1f 42 44 7a e1 42 55 d7 0a 41 b2 14 7b 41 9f 85 1f 42 4f 7a e1 42 5b 51 ec 21 c3
both,5,6,49000,00 03,05 06 bf 68 00 03 6c 47
both,5,6,49000,00 03,05 06 bf 68 00 03 6c 47
request,5,16,40601,00 00 13 88 00 00 13 88 1c 91 1c 91,05 10 9e 99 00 06 0c 00 00 13 88 00 00 13 88 1c 91 1c 91 d3 a2
response,5,16,40601,,05 10 9e 99 00 06 be 48
request,11,3,2102,,0b 03 08 36 00 50 a7 32
error,0,0,0,,0b 03 a0 3f ce 35 3f 3e cf 5c 29 3f 2a 7e fa 43 6b 19 9a 43 6a 66 66 43 6b e6 66 43 6b 19 9a 43 cb 8c cd 43 cb 99 9a 43 cb e6 66 43 cb 40 00 42 48 00 00 42 9e 00 00 43 6e 00 00 c2 66 cc cd c2 ca 66 66 c3 b0 73 33 c3 3c b3 33 c2 64 00 00 c2 d6 33 33 44 1d d3 33 43 be 8c cd 42 ba 66 66 43 1c cc cd bd ef 9d b2 bf 1d f3 b6 bf 1c 28 f6 bf 66 43 bc 40 00 42 bb 66 66 43 1d 33 33 bd ef 9d b2 bf 1d f3 b6 bf 1a e1 48 bf 22 4d d3 42 f7 05 1f 42 ff 28 f6 c0 30 00 00 bf af 5c 29 43 11 c5 1f 43 13 85 1f 42 44 7a e1 42 55 d7 0a 41 b2 14 7b 41 9f 85 1f 42 4f 7a e1 42 5b 51 ec 8b 11
request,11,3,2102,,0b 03 08 36 00 50 a7 32
response,11,3,,3f cd 0e 56 3e cc 49 ba 3f 2c 08 31 43 6b 19 9a 43 6a 66 66 43 6b cc cd 43 6b 33 33 43 cb 99 9a 43 cb 99 9a 43 cb e6 66 43 cb 4c cd 42 48 00 00 42 91 33 33 43 67 19 9a c2 68 66 66 c2 c8 cc cd c3 aa 99 9a c3 32 33 33 c2 62 00 00 c2 d4 cc cd 44 1b b9 9a 43 ba 66 66 42 ba 33 33 43 1c cc cd bd ef 9d b2 bf 1d f3 b6 bf 1a e1 48 bf 22 4d d3 42 f7 05 1f 42 ff 28 f6 c0 30 00 00 bf af 5c 29 43 11 c5 1f 43 13 85 1f 42 44 7a e1 42 55 d7 0a 41 b2 14 7b 41 9f 85 1f 42 4f 7a e1 42 5b 51 ec,0b 03 a0 3f cd 0e 56 3e cc 49 ba 3f 2c 08 31 43 6b 19 9a 43 6a 66 66 43 6b cc cd 43 6b 33 33 43 cb 99 9a 43 cb 99 9a 43 cb e6 66 43 cb 4c cd 42 48 00 00 42 91 33 33 43 67 19 9a c2 68 66 66 c2 c8 cc cd c3 aa 99 9a c3 32 33 33 c2 62 00 00 c2 d4 cc cd 44 1b b9 9a 43 ba 66 66 42 ba 33 33 43 1c cc cd bd ef 9d b2 bf 1d f3 b6 bf 1a e1 48 bf 22 4d d3 42 f7 05 1f 42 ff 28 f6 c0 30 00 00 bf af 5c 29 43 11 c5 1f 43 13 85 1f 42 44 7a e1 42 55 d7 0a 41 b2 14 7b 41 9f 85 1f 42 4f 7a e1 42 5b 51 ec 07 ba
request,11,3,2102,,0b 03 08 36 00 50 a7 32
response,11,3,,3f cb 85 1f 3e cc cc cd 3f 2c 49 ba 43 6b 19 9a 43 6a 80 00 43 6b cc cd 43 6b 19 9a 43 cb 99 9a 43 cb 99 9a 43 cb e6 66 43 cb 4c cd 42 47 f5 c3 42 8d 99 9a 43 66 cc cd c2 6b 99 9a c2 ca 00 00 c3 aa 8c cd c3 30 00 00 c2 67 33 33 c2 d6 66 66 44 1b 66 66 43 b9 4c cd 42 bb 00 00 43 1d 66 66 bd f1 a9 fc bf 1e 35 3f bf 1d b2 2d bf 22 d0 e5 42 f7 05 1f 42 ff 28 f6 c0 30 00 00 bf af 5c 29 43 11 c5 1f 43 13 85 1f 42 44 7a e1 42 55 d7 0a 41 b2 14 7b 41 9f 85 1f 42 4f 7a e1 42 5b 51 ec,0b 03 a0 3f cb 85 1f 3e cc cc cd 3f 2c 49 ba 43 6b 19 9a 43 6a 80 00 43 6b cc cd 43 6b 19 9a 43 cb 99 9a 43 cb 99 9a 43 cb e6 66 43 cb 4c cd 42 47 f5 c3 42 8d 99 9a 43 66 cc cd c2 6b 99 9a c2 ca 00 00 c3 aa 8c cd c3 30 00 00 c2 67 33 33 c2 d6 66 66 44 1b 66 66 43 b9 4c cd 42 bb 00 00 43 1d 66 66 bd f1 a9 fc bf 1e 35 3f bf 1d b2 2d bf 22 d0 e5 42 f7 05 1f 42 ff 28 f6 c0 30 00 00 bf af 5c 29 43 11 c5 1f 43 13 85 1f 42 44 7a e1 42 55 d7 0a 41 b2 14 7b 41 9f 85 1f 42 4f 7a e1 42 5b 51 ec 23 6c
request,5,16,40601,00 00 13 88 00 00 13 88 1c 94 1c 94,05 10 9e 99 00 06 0c 00 00 13 88 00 00 13 88 1c 94 1c 94 03 a0
response,5,16,40601,,05 10 9e 99 00 06 be 48
request,5,3,39500,,05 03 9a 4c 00 19 6a 8b
response,5,3,,00 00 27 10 00 00 27 10 00 00 13 88 00 00 13 88 00 27 00 01 1c 2e 00 05 00 00 00 6d 00 01 00 04 27 e1 00 04 07 eb 00 00 01 b3 00 00 00 00 00 00 00 00,05 03 32 00 00 27 10 00 00 27 10 00 00 13 88 00 00 13 88 00 27 00 01 1c 2e 00 05 00 00 00 6d 00 01 00 04 27 e1 00 04 07 eb 00 00 01 b3 00 00 00 00 00 00 00 00 66 5c
request,11,3,2102,,0b 03 08 36 00 50 a7 32
error,0,0,0,,bf af 5c 29 43 11 c5 1f 43 13 85 1f 42 44 7a e1 42 55 d7 0a 41 b2 14 7b 41 9f 85 1f 42 4f 7a e1 42 5b 51 ec d2 98
request,11,3,2102,,0b 03 08 36 00 50 a7 32
response,11,3,,3f d3 33 33 3e cd d2 f2 3f 2b 43 96 43 6b 4c cd 43 6a 99 9a 43 6c 00 00 43 6b 4c cd 43 cb c0 00 43 cb c0 00 43 cc 0c cd 43 cb 73 33 42 47 f5 c3 42 b6 66 66 43 75 b3 33 c2 5f 33 33 c2 c5 33 33 c3 ae 66 66 c3 37 80 00 c2 67 99 9a c2 d6 99 9a 44 1e e6 66 43 c0 f3 33 42 ba cc cd 43 1c 4c cd be 01 06 25 bf 1e f9 db bf 1c ed 91 bf 22 d0 e5 42 f7 05 1f 42 ff 28 f6 c0 30 00 00 bf af 5c 29 43 11 c5 1f 43 13 85 1f 42 44 7a e1 42 55 d7 0a 41 b2 14 7b 41 9f 85 1f 42 4f 7a e1 42 5b 51 ec,0b 03 a0 3f d3 33 33 3e cd d2 f2 3f 2b 43 96 43 6b 4c cd 43 6a 99 9a 43 6c 00 00 43 6b 4c cd 43 cb c0 00 43 cb c0 00 43 cc 0c cd 43 cb 73 33 42 47 f5 c3 42 b6 66 66 43 75 b3 33 c2 5f 33 33 c2 c5 33 33 c3 ae 66 66 c3 37 80 00 c2 67 99 9a c2 d6 99 9a 44 1e e6 66 43 c0 f3 33 42 ba cc cd 43 1c 4c cd be 01 06 25 bf 1e f9 db bf 1c ed 91 bf 22 d0 e5 42 f7 05 1f 42 ff 28 f6 c0 30 00 00 bf af 5c 29 43 11 c5 1f 43 13 85 1f 42 44 7a e1 42 55 d7 0a 41 b2 14 7b 41 9f 85 1f 42 4f 7a e1 42 5b 51 ec 3b 48
request,5,16,40601,00 00 13 88 00 00 13 88 1c 94 1c 94,05 10 9e 99 00 06 0c 00 00 13 88 00 00 13 88 1c 94 1c 94 03 a0
response,5,16,40601,,05 10 9e 99 00 06 be 48
request,5,3,39500,,05 03 9a 4c 00 19 6a 8b
response,5,3,,00 00 27 10 00 00 27 10 00 00 13 88 00 00 13 88 00 27 00 01 1c 2e 00 05 00 00 00 6d 00 01 00 04 27 e1 00 04 07 eb 00 00 01 b3 00 00 00 00 00 00 00 00,05 03 32 00 00 27 10 00 00 27 10 00 00 13 88 00 00 13 88 00 27 00 01 1c 2e 00 05 00 00 00 6d 00 01 00 04 27 e1 00 04 07 eb 00 00 01 b3 00 00 00 00 00 00 00 00 66 5c
request,11,3,2102,,0b 03 08 36 00 50 a7 32
error,0,0,0,,0b 03 a0 3f d3 33 33 3e cd d2 f2 3f 2b 43 96 43 6b 4c cd 43 6a 99 9a 43 6c 00 00 43 6b 4c cd 43 cb c0 00 43 cb c0 00 43 cc 0c cd 43 cb 73 33 42 47 f5 c3 42 96 cc cd 43 66 b3 33 c2 60 66 66 c2 c6 66 66 c3 ae cc cd c3 38 00 00 c2 69 99 9a c2 d6 66 66 44 1c 8c cd 43 bb 66 66 42 bd 00 00 43 1c cc cd be 01 06 25 bf 1e f9 db bf 1c ed 91 bf 6b 4c cd 43 cb c0 00 43 cb c0 00 43 cc 0c cd 43 cb 73 33 42 47 f5 c3 42 8c 66 66 43 65 99 9a c2 6b 33 33 c2 c9 66 66 c3 ae b3 33 c3 37 e6 66 c2 68 66 66 c2 d6 cc cd 44 1b c0 00 43 ba 59 9a 42 b9 cc cd 43 1d 33 33 bd ef 9d b2 bf 1c ac 08 bf 1c ed 91 bf 21 ca c1 42 f7 05 1f 42 ff 28 f6 c0 30 00 00 bf af 5c 29 43 11 c5 1f 43 13 85 1f 42 44 7a e1 42 55 d7 0a 41 b2 14 7b 41 9f 85 1f 42 4f 7a e1 42 5b 51 ec 42 ca
request,5,3,32351,,05 03 7e 5f 00 09 ac 72
response,5,3,,00 00 00 00 00 00 00 00 00 00 00 00 00 00 00 00 00 00,05 03 12 00 00 00 00 00 00 00 00 00 00 00 00 00 00 00 00 00 00 b7 06
request,5,16,40601,00 00 13 88 00 00 13 88 1c 96 1c 96,05 10 9e 99 00 06 0c 00 00 13 88 00 00 13 88 1c 96 1c 96 23 a1
response,5,16,40601,,05 10 9e 99 00 06 be 48
error,0,0,0,,ff 28 f6 c0 30 00 00 bf af 5c 29 43 11 c5 1f 43 13 85 1f 42 44 7a e1 42 55 d7 0a 41 b2 14 7b 41 9f 85 1f 42 4f 7a e1 42 5b 51 ec 0b b6
request,5,3,30101,,05 03 75 95 00 09 8e 68
response,5,3,,00 01 1c 2a 00 05 00 27 00 64 00 00 00 68 01 b3 00 00,05 03 12 00 01 1c 2a 00 05 00 27 00 64 00 00 00 68 01 b3 00 00 f2 e1
request,11,3,2214,,0b 03 08 a6 00 0a 27 24
response,11,3,,40 84 7a e1 00 00 00 00 00 00 00 00 00 00 00 00 43 b8 17 0a,0b 03 14 40 84 7a e1 00 00 00 00 00 00 00 00 00 00 00 00 43 b8 17 0a b0 a8
request,5,3,30151,,05 03 75 c7 00 01 2e 7f
response,5,3,,00 00,05 03 02 00 00 49 84
request,11,3,2102,,0b 03 08 36 00 50 a7 32
response,11,3,,3f cb 02 0c 3e cf 5c 29 3f 2b 43 96 43 6b 33 33 43 6a 80 00 43 6c 00 00 43 6b 4c cd 43 cb b3 33 43 cb b3 33 43 cc 0c cd 43 cb 66 66 42 47 f5 c3 42 96 33 33 43 68 33 33 c2 69 33 33 c2 c5 66 66 c3 a9 80 00 c3 2c cc cd c2 69 33 33 c2 d7 cc cd 44 1b e6 66 43 ba 33 33 42 bd 00 00 43 1c 99 9a bd ef 9d b2 bf 1e 35 3f bf 20 83 12 bf 22 4d d3 42 f7 05 1f 42 ff 28 f6 c0 30 00 00 bf af 5c 29 43 11 c5 1f 43 13 85 1f 42 44 7a e1 42 55 d7 0a 41 b2 14 7b 41 9f 85 1f 42 4f 7a e1 42 5b 51 ec,0b 03 a0 3f cb 02 0c 3e cf 5c 29 3f 2b 43 96 43 6b 33 33 43 6a 80 00 43 6c 00 00 43 6b 4c cd 43 cb b3 33 43 cb b3 33 43 cc 0c cd 43 cb 66 66 42 47 f5 c3 42 96 33 33 43 68 33 33 c2 69 33 33 c2 c5 66 66 c3 a9 80 00 c3 2c cc cd c2 69 33 33 c2 d7 cc cd 44 1b e6 66 43 ba 33 33 42 bd 00 00 43 1c 99 9a bd ef 9d b2 bf 1e 35 3f bf 20 83 12 bf 22 4d d3 42 f7 05 1f 42 ff 28 f6 c0 30 00 00 bf af 5c 29 43 11 c5 1f 43 13 85 1f 42 44 7a e1 42 55 d7 0a 41 b2 14 7b 41 9f 85 1f 42 4f 7a e1 42 5b 51 ec b9 9b
request,5,3,39500,,05 03 9a 4c 00 19 6a 8b
error,0,0,0,,05 03 32 00 00 27 10 00 00 27 10 00 00 13 88 00 00 13 1c 73 33 43 bb 73 33 42 bd 33 33 43 1c 19 9a bd f3 b6 46 bf 1e b8 52 bf 1d b2 2d bf 22 0c 4a 42 f7 05 1f 42 ff 28 f6 c0 30 00 00 bf af 5c 29 43 11 c5 1f 43 13 85 1f 42 44 7a e1 42 55 d7 0a 41 b2 14 7b 41 9f 85 1f 42 4f 7a e1 42 5b 51 ec aa c5
request,5,16,40601,00 00 13 88 00 00 13 88 1c 97 1c 97,05 10 9e 99 00 06 0c 00 00 13 88 00 00 13 88 1c 97 1c 97 b3 a1
response,5,16,40601,,05 10 9e 99 00 06 be 48
request,5,3,32051,,05 03 7d 33 00 09 6c 2b
response,5,3,,00 01 02 0e 00 0c 00 00 00 2f 01 29 01 05 00 3e 00 64,05 03 12 00 01 02 0e 00 0c 00 00 00 2f 01 29 01 05 00 3e 00 64 f4 f6
request,11,3,2102,,0b 03 08 36 00 50 a7 32
response,11,3,,3f cf 3b 64 3e cf df 3b 3f 2b 02 0c 43 6b 33 33 43 6a 66 66 43 6b e6 66 43 6b 4c cd 43 cb a6 66 43 cb 99 9a 43 cc 00 00 43 cb 59 9a 42 47 eb 85 42 9f 99 9a 43 6c 00 00 c2 62 66 66 c2 c7 00 00 c3 ad e6 66 c3 37 00 00 c2 68 66 66 c2 d5 33 33 44 1c c6 66 43 bc e6 66 42 ba cc cd 43 1b cc cd bd f3 b6 46 bf 1e b8 52 bf 1d 70 a4 bf 22 0c 4a 42 f7 05 1f 42 ff 28 f6 c0 30 00 00 bf af 5c 29 43 11 c5 1f 43 13 85 1f 42 44 7a e1 42 55 d7 0a 41 b2 14 7b 41 9f 85 1f 42 4f 7a e1 42 5b 51 ec,0b 03 a0 3f cf 3b 64 3e cf df 3b 3f 2b 02 0c 43 6b 33 33 43 6a 66 66 43 6b e6 66 43 6b 4c cd 43 cb a6 66 43 cb 99 9a 43 cc 00 00 43 cb 59 9a 42 47 eb 85 42 9f 99 9a 43 6c 00 00 c2 62 66 66 c2 c7 00 00 c3 ad e6 66 c3 37 00 00 c2 68 66 66 c2 d5 33 33 44 1c c6 66 43 bc e6 66 42 ba cc cd 43 1b cc cd bd f3 b6 46 bf 1e b8 52 bf 1d 70 a4 bf 22 0c 4a 42 f7 05 1f 42 ff 28 f6 c0 30 00 00 bf af 5c 29 43 11 c5 1f 43 13 85 1f 42 44 7a e1 42 55 d7 0a 41 b2 14 7b 41 9f 85 1f 42 4f 7a e1 42 5b 51 ec f6 9c
both,5,6,49009,1d 34,05 06 bf 71 1d 34 f5 06
both,5,6,49009,1d 34,05 06 bf 71 1d 34 f5 06
both,5,6,49000,00 03,05 06 bf 68 00 03 6c 47
both,5,6,49000,00 03,05 06 bf 68 00 03 6c 47
request,5,3,32000,,05 03 7d 00 00 1f 1d ea
response,5,3,,56 31 30 30 52 30 30 32 43 30 30 53 50 43 30 30 30 42 30 32 33 00 00 00 00 00 00 00 00 00 00 00 00 41 04 00 00 01 4c 53 32 31 31 37 30 30 36 33 39 39 00 00 00 00 00 00 00 00 60 e8 97 9d,05 03 3e 56 31 30 30 52 30 30 32 43 30 30 53 50 43 30 30 30 42 30 32 33 00 00 00 00 00 00 00 00 00 00 00 00 41 04 00 00 01 4c 53 32 31 31 37 30 30 36 33 39 39 00 00 00 00 00 00 00 00 60 e8 97 9d cb 2c
request,11,3,2102,,0b 03 08 36 00 50 a7 32
error,0,0,0,,0b 03 a0 3f cc 6a 7f 3e cc cc cd 3f 2b 85 1f 43 6b 19 9a 43 6a 99 9a 43 6b cc cd 43 6b 19 9a 43 cb 99 9a 43 cb a6 66 43 cb e6 66 43 cb 59 9a 42 47 eb 85 42 89 66 66 43 62 99 9a c2 6a 00 00 c2 c6 99 9a c3 af 8c cd c3 39 b3 33 c2 67 33 33 c2 d6 cc cd 44 1b f3 33 43 ba 73 33 42 bb 66 66 43 1d 00 00 bd f7 ce d9 bf 1e 35 3f bf 1b e7 6d bf 11 c5 1f 43 13 85 1f 42 44 7a e1 42 55 d7 0a 41 b2 14 7b 41 9f 85 1f 42 4f 7a e1 42 5b 51 ec 8f 86
request,11,3,2102,,0b 03 08 36 00 50 a7 32
response,11,3,,3f cc cc cd 3e d0 e5 60 3f 2b 02 0c 43 6a e6 66 43 6a 4c cd 43 6b cc cd 43 6a cc cd 43 cb 73 33 43 cb 8c cd 43 cb c0 00 43 cb 19 9a 42 47 eb 85 42 93 66 66 43 67 33 33 c2 6c 66 66 c2 c4 99 9a c3 ae c0 00 c3 37 e6 66 c2 66 66 66 c2 d8 00 00 44 1c c0 00 43 bb 4c cd 42 bf 00 00 43 1c cc cd bd e9 78 d5 bf 1d 70 a4 bf 20 00 00 bf 21 47 ae 42 f7 05 1f 42 ff 28 f6 c0 30 00 00 bf af 5c 29 43 11 c5 1f 43 13 85 1f 42 44 7a e1 42 55 d7 0a 41 b2 14 7b 41 9f 85 1f 42 4f 7a e1 42 5b 51 ec,0b 03 a0 3f cc cc cd 3e d0 e5 60 3f 2b 02 0c 43 6a e6 66 43 6a 4c cd 43 6b cc cd 43 6a cc cd 43 cb 73 33 43 cb 8c cd 43 cb c0 00 43 cb 19 9a 42 47 eb 85 42 93 66 66 43 67 33 33 c2 6c 66 66 c2 c4 99 9a c3 ae c0 00 c3 37 e6 66 c2 66 66 66 c2 d8 00 00 44 1c c0 00 43 bb 4c cd 42 bf 00 00 43 1c cc cd bd e9 78 d5 bf 1d 70 a4 bf 20 00 00 bf 21 47 ae 42 f7 05 1f 42 ff 28 f6 c0 30 00 00 bf af 5c 29 43 11 c5 1f 43 13 85 1f 42 44 7a e1 42 55 d7 0a 41 b2 14 7b 41 9f 85 1f 42 4f 7a e1 42 5b 51 ec 02 2a
both,5,6,49000,00 03,05 06 bf 68 00 03 6c 47
both,5,6,49000,00 03,05 06 bf 68 00 03 6c 47
request,5,16,40601,00 00 13 88 00 00 13 88 1c 9a 1c 9a,05 10 9e 99 00 06 0c 00 00 13 88 00 00 13 88 1c 9a 1c 9a e3 a7
response,5,16,40601,,05 10 9e 99 00 06 be 48
error,0,0,0,,ff 28 f6 c0 30 00 00 bf af 5c 29 43 11 c5 1f 43 13 85 1f 42 44 7a e1 42 55 d7 0a 41 b2 14 7b 41 9f 85 1f 42 4f 7a e1 42 5b 51 ec b1 bc
request,5,3,41051,,05 03 a0 5b 00 05 d7 9e
response,5,3,,38 6d 43 80 00 00 00 08 00 02,05 03 0a 38 6d 43 80 00 00 00 08 00 02 9e 5b
request,11,3,2214,,0b 03 08 a6 00 0a 27 24
response,11,3,,40 84 7a e1 00 00 00 00 00 00 00 00 00 00 00 00 43 b8 17 0a,0b 03 14 40 84 7a e1 00 00 00 00 00 00 00 00 00 00 00 00 43 b8 17 0a b0 a8
request,11,3,2102,,0b 03 08 36 00 50 a7 32
response,11,3,,3f cd 70 a4 3e cd 4f df 3f 2a c0 83 43 6b 00 00 43 6a 4c cd 43 6b e6 66 43 6a cc cd 43 cb 80 00 43 cb 99 9a 43 cb cc cd 43 cb 19 9a 42 47 eb 85 42 87 cc cd 43 63 80 00 c2 6e 66 66 c2 c7 99 9a c3 af 59 9a c3 39 4c cd c2 64 66 66 c2 d8 66 66 44 1c 13 33 43 ba 99 9a 42 bb cc cd 43 1d 19 9a bd ef 9d b2 bf 1d f3 b6 bf 1e f9 db bf 21 89 37 42 f7 05 1f 42 ff 28 f6 c0 30 00 00 bf af 5c 29 43 11 c5 1f 43 13 85 1f 42 44 7a e1 42 55 d7 0a 41 b2 14 7b 41 9f 85 1f 42 4f 7a e1 42 5b 51 ec,0b 03 a0 3f cd 70 a4 3e cd 4f df 3f 2a c0 83 43 6b 00 00 43 6a 4c cd 43 6b e6 66 43 6a cc cd 43 cb 80 00 43 cb 99 9a 43 cb cc cd 43 cb 19 9a 42 47 eb 85 42 87 cc cd 43 63 80 00 c2 6e 66 66 c2 c7 99 9a c3 af 59 9a c3 39 4c cd c2 64 66 66 c2 d8 66 66 44 1c 13 33 43 ba 99 9a 42 bb cc cd 43 1d 19 9a bd ef 9d b2 bf 1d f3 b6 bf 1e f9 db bf 21 89 37 42 f7 05 1f 42 ff 28 f6 c0 30 00 00 bf af 5c 29 43 11 c5 1f 43 13 85 1f 42 44 7a e1 42 55 d7 0a 41 b2 14 7b 41 9f 85 1f 42 4f 7a e1 42 5b 51 ec d7 1f
error,0,0,0,,07 eb 00 00 01 b3 00 00 00 00 00 00 00 00 3d d4
request,5,3,32051,,05 03 7d 33 00 09 6c 2b
response,5,3,,00 01 02 0e 00 0c 00 00 00 30 01 29 01 05 00 3e 00 64,05 03 12 00 01 02 0e 00 0c 00 00 00 30 01 29 01 05 00 3e 00 64 78 c6
request,11,3,2102,,0b 03 08 36 00 50 a7 32
response,11,3,,3f cd d2 f2 3e ce d9 17 3f 2c 8b 44 43 6a e6 66 43 6a 4c cd 43 6b cc cd 43 6a cc cd 43 cb 73 33 43 cb 8c cd 43 cb c0 00 43 cb 19 9a 42 47 e1 48 42 98 cc cd 43 69 4c cd c2 6c 00 00 c2 c3 99 9a c3 ad 0c cd c3 34 80 00 c2 64 66 66 c2 d9 00 00 44 1c c0 00 43 bb cc cd 42 bc 33 33 43 1d 19 9a be 01 06 25 bf 1f 3b 64 bf 1e 76 c9 bf 1e f9 db 42 f7 05 1f 42 ff 28 f6 c0 30 00 00 bf af 5c 29 43 11 c5 1f 43 13 85 1f 42 44 7a e1 42 55 d7 0a 41 b2 14 7b 41 9f 85 1f 42 4f 7a e1 42 5b 51 ec,0b 03 a0 3f cd d2 f2 3e ce d9 17 3f 2c 8b 44 43 6a e6 66 43 6a 4c cd 43 6b cc cd 43 6a cc cd 43 cb 73 33 43 cb 8c cd 43 cb c0 00 43 cb 19 9a 42 47 e1 48 42 98 cc cd 43 69 4c cd c2 6c 00 00 c2 c3 99 9a c3 ad 0c cd c3 34 80 00 c2 64 66 66 c2 d9 00 00 44 1c c0 00 43 bb cc cd 42 bc 33 33 43 1d 19 9a be 01 06 25 bf 1f 3b 64 bf 1e 76 c9 bf 1e f9 db 42 f7 05 1f 42 ff 28 f6 c0 30 00 00 bf af 5c 29 43 11 c5 1f 43 13 85 1f 42 44 7a e1 42 55 d7 0a 41 b2 14 7b 41 9f 85 1f 42 4f 7a e1 42 5b 51 ec 25 3a
request,5,3,32351,,05 03 7e 5f 00 09 ac 72
response,5,3,,00 00 00 00 00 00 00 00 00 00 00 00 00 00 00 00 00 00,05 03 12 00 00 00 00 00 00 00 00 00 00 00 00 00 00 00 00 00 00 b7 06
request,11,3,2102,,0b 03 08 36 00 50 a7 32
response,11,3,,3f cd d2 f2 3e ce d9 17 3f 2c 8b 44 43 6a e6 66 43 6a 4c cd 43 6b cc cd 43 6a cc cd 43 cb 73 33 43 cb 8c cd 43 cb c0 00 43 cb 19 9a 42 47 e1 48 42 94 66 66 43 69 e6 66 c2 6f 99 9a c2 c7 66 66 c3 aa f3 33 c3 30 e6 66 c2 62 cc cd c2 d8 66 66 44 1d 4c cd 43 bc 73 33 42 bd 33 33 43 1d 99 9a be 01 06 25 bf 1f 3b 64 bf 1e 76 c9 bf 1e f9 db 42 f7 05 1f 42 ff 28 f6 c0 30 00 00 bf af 5c 29 43 11 c5 1f 43 13 85 1f 42 44 7a e1 42 55 d7 0a 41 b2 14 7b 41 9f 85 1f 42 4f 7a e1 42 5b 51 ec,0b 03 a0 3f cd d2 f2 3e ce d9 17 3f 2c 8b 44 43 6a e6 66 43 6a 4c cd 43 6b cc cd 43 6a cc cd 43 cb 73 33 43 cb 8c cd 43 cb c0 00 43 cb 19 9a 42 47 e1 48 42 94 66 66 43 69 e6 66 c2 6f 99 9a c2 c7 66 66 c3 aa f3 33 c3 30 e6 66 c2 62 cc cd c2 d8 66 66 44 1d 4c cd 43 bc 73 33 42 bd 33 33 43 1d 99 9a be 01 06 25 bf 1f 3b 64 bf 1e 76 c9 bf 1e f9 db 42 f7 05 1f 42 ff 28 f6 c0 30 00 00 bf af 5c 29 43 11 c5 1f 43 13 85 1f 42 44 7a e1 42 55 d7 0a 41 b2 14 7b 41 9f 85 1f 42 4f 7a e1 42 5b 51 ec 4d 70
both,5,6,49000,00 03,05 06 bf 68 00 03 6c 47
both,5,6,49000,00 03,05 06 bf 68 00 03 6c 47
request,11,3,2102,,0b 03 08 36 00 50 a7 32
error,0,0,0,,bf af 5c 29 43 11 c5 1f 43 13 85 1f 42 44 7a e1 42 55 d7 0a 41 b2 14 7b 41 9f 85 1f 42 4f 7a e1 42 5b 51 ec 83 b3
request,11,3,2102,,0b 03 08 36 00 50 a7 32
